(1.218000) can0 f1#6280000400000
(1.218250) can0 c7#400000000
(1.218500) can0 f9#80000400000000006
(1.220350) can0 c1#83000000030000000
(1.220600) can0 321#8000094FF7FBFDFE0
(1.220850) can0 c5#83000000030000000
(1.221050) can0 1e1#700000400010DDF
(1.221300) can0 d1#78000BFFE00FE00
(1.221450) can0 185#2000A
(1.221700) can0 1c6#82A6F2FD1000340BC
(1.221900) can0 1c7#7096E369200003F
(1.222150) can0 1e5#85CFFD31009000283
(1.222400) can0 1fc#80111FFCC0000822C
(1.223000) can0 1f3#3C0C000
(1.224650) can0 189#80FFF0FFF3001FFF0
(1.224900) can0 17d#6222442FF0000
(1.225100) can0 aa#82A8B2F570650A600
(1.225350) can0 19d#800000000000000FF
(1.225550) can0 be#60800000001FE
(1.225700) can0 1a6#104
(1.225900) can0 c9#80000002A00000800
(1.226150) can0 1af#800000011000000FF
(1.226300) can0 d3#22A88
(1.226450) can0 1ce#4180007FD
(1.226700) can0 18e#800000062A62B062B
(1.226950) can0 1f5#80F0F002100000300
(1.227200) can0 1ed#801A9000000003329
(1.227350) can0 210#4060001FD
(1.227600) can0 4c9#8404EC10010000000
(1.227800) can0 514#8474E534B424B4335
(1.228050) can0 77f#700000000000000
(1.230200) can0 c1#80000000000000000
(1.230450) can0 c5#80000000000000000
(1.230600) can0 c7#400000000
(1.230850) can0 d1#7C000FFFD00FD00
(1.231100) can0 f1#6340000400000
(1.231300) can0 f9#80000400000000006
(1.231550) can0 1e5#85CFFD330070002A1
(1.231800) can0 1e9#80FFC000EA0030000
(1.232050) can0 214#6040041FE482A
(1.232250) can0 232#80000010000006000
(1.233050) can0 451#6000000000000
(1.235000) can0 182#80000000000000000
(1.235200) can0 1cc#50000000000
(1.235400) can0 2f9#7F8000A0000000A
(1.235650) can0 52a#6242438393A39
(1.237500) can0 aa#82A8B2F570050A900
(1.237700) can0 be#60C00000001FD
(1.237950) can0 c9#80000002D00000800
(1.238150) can0 f1#6000204400000
(1.238300) can0 d3#22A88
(1.238550) can0 1a1#700100000625200
(1.238750) can0 18e#800000062A62B062B
(1.238850) can0 1a3#100
(1.239100) can0 1ed#801A9000000003329
(1.239300) can0 1aa#70062A63F62A000
(1.239550) can0 1ba#816A06A062A7BC8AF
(1.239800) can0 1c3#8062A07BC00000000
(1.240050) can0 1c4#86D62C21B060003FD
(1.240300) can0 c1#81000000010000000
(1.240500) can0 1c5#62F572BF0323D
(1.240700) can0 c5#81000000010000000
(1.240850) can0 148#100
(1.241100) can0 d1#700000000000000
(1.241250) can0 1df#400000000
(1.241400) can0 185#2000A
(1.241600) can0 1f4#6000000000000
(1.241800) can0 1c7#7096E769100003F
(1.241950) can0 287#3000000
(1.242200) can0 1e5#85CFFD350060002C0
(1.242350) can0 52b#431313230
(1.242550) can0 348#5000000001B
(1.242800) can0 778#700310000000000
(1.243050) can0 530#400000000
(1.243250) can0 c7#400000000
(1.243450) can0 f9#80000400000000006
(1.245100) can0 1c6#82A6F2FD1004340BB
(1.245250) can0 1ce#400000000
(1.245500) can0 321#80000B4FF7FBFDFE0
(1.245750) can0 34a#50000000000
(1.245900) can0 350#400000C00
(1.247300) can0 7e8#803410552AAAAAAAA
(1.248000) can0 f1#61C0000400000
(1.249600) can0 189#84FFF0FFF3000FFF0
(1.249850) can0 19d#840003FFF000000FF
(1.250050) can0 aa#82A8B2F570250A800
(1.250350) can0 c1#82000000020000000
(1.250550) can0 be#6000000000000
(1.250800) can0 c5#82000000020000000
(1.251050) can0 c9#80000002000000800
(1.251250) can0 d1#740007FFF00FF00
(1.251400) can0 d3#22A88
(1.251650) can0 12a#830E2705F00001080
(1.251850) can0 18e#800000062A62B062B
(1.252000) can0 1a6#104
(1.252250) can0 1af#800000011000000FF
(1.252450) can0 1e5#85CFFD370050002DF
(1.252700) can0 1ed#801A9000000003329
(1.252950) can0 1e9#80FF8000EA0040000
(1.253150) can0 135#800080C326614142F
(1.253400) can0 1f5#80F0F002100000300
(1.253650) can0 232#80000010000006000
(1.253950) can0 34c#811800004000A0FF8
(1.255000) can0 1cc#50000000000
(1.255150) can0 362#400000000
(1.255600) can0 c7#400000000
(1.255850) can0 f9#80000400000000006
(1.256100) can0 137#80F008A510DD8080E
(1.258050) can0 f1#6280000400000
(1.260150) can0 c1#83000000030000000
(1.260400) can0 c5#83000000030000000
(1.260600) can0 d1#78000BFFE00FE00
(1.260850) can0 139#80200000000000000
(1.261000) can0 185#2000A
(1.261250) can0 1c7#7096EB69000003F
(1.261450) can0 1e5#85CFFD3100300027D
(1.262550) can0 aa#82A8B2F570450A700
(1.262750) can0 be#60400000001FF
(1.263000) can0 c9#80000002700000800
(1.263200) can0 160#50000000000
(1.263300) can0 d3#22A88
(1.263550) can0 1a1#700100000625200
(1.263750) can0 18e#800000062A62B062B
(1.263900) can0 1a3#100
(1.264150) can0 1ed#801A9000000003329
(1.264350) can0 1aa#70062A63F62A000
(1.264600) can0 1ba#816A06A062A7BC8AF
(1.264850) can0 1c3#8062A07BC00000000
(1.265000) can0 1ce#4080007FF
(1.265250) can0 1c4#80062C21B00000000
(1.265700) can0 1c5#62F572BF0323D
(1.265900) can0 1e1#70000040002020E
(1.266100) can0 1df#400000000
(1.266300) can0 1f4#6000000000000
(1.266450) can0 287#3430000
(1.266700) can0 2c3#8062A062A0000CD10
(1.266950) can0 3c1#80765140000000000
(1.267200) can0 3d1#8014C800000000000
(1.267400) can0 3d3#700C9000000004C
(1.267650) can0 3e9#80000000000000000
(1.268050) can0 f1#6340000400000
(1.268200) can0 c7#400000000
(1.268450) can0 f9#80000400000000006
(1.270300) can0 c1#80000000000000000
(1.270550) can0 321#80000D4FF7FBFDFE0
(1.270800) can0 c5#80000000000000000
(1.271050) can0 1f1#8800A00000800007A
(1.271250) can0 d1#7C000FFFD00FD00
(1.271500) can0 1c6#82A6F2FD1008340BA
(1.271750) can0 1e5#85CFFD23000000299
(1.272050) can0 1e9#80FF8000EA0030000
(1.272300) can0 1fc#80111FF980000C200
(1.272500) can0 7e8#803410A00AAAAAAAA
(1.272750) can0 232#80000010000006000
(1.273000) can0 1f3#3000000
(1.274700) can0 189#88FFF0FFF2FFFFFF0
(1.274950) can0 19d#880003FFE000000FF
(1.275200) can0 aa#82A8B2F570650A600
(1.275300) can0 1a6#104
(1.275500) can0 be#60800000001FE
(1.275750) can0 1af#800000011000000FF
(1.276000) can0 c9#80000002A00000800
(1.276200) can0 1cc#50000000000
(1.276350) can0 d3#22A88
(1.276600) can0 1f5#80F0F002100000300
(1.276800) can0 18e#800000062A62B062B
(1.277000) can0 210#400000000
(1.277200) can0 1ed#801A9000000003329
(1.277450) can0 32a#80000000000000000
(1.278050) can0 f1#6000000400000
(1.280200) can0 c1#81000000010000000
(1.280450) can0 c5#81000000010000000
(1.280650) can0 c7#400000000
(1.280900) can0 d0#88000800080008000
(1.281150) can0 f9#80000400000000006
(1.281350) can0 d1#700000000000000
(1.281600) can0 1e1#7000004000307FD
(1.281750) can0 185#2000A
(1.281950) can0 1c7#7096EF68F00003F
(1.282200) can0 1e5#85CFFD250000002B9
(1.282400) can0 214#6060061FD6C35
(1.283000) can0 1f3#3404000
(1.284900) can0 1ce#4100007FE
(1.285100) can0 234#50000000000
(1.285350) can0 2f9#703000D0000000D
(1.285600) can0 3c9#80766000000000000
(1.287550) can0 aa#82A8B2F570050A900
(1.287800) can0 be#60C00000001FD
(1.288000) can0 c9#80000002D00000800
(1.288250) can0 f1#61C0204400000
(1.288350) can0 d3#22A88
(1.288600) can0 1a1#700100000625200
(1.288800) can0 18e#800000062A62B062B
(1.288950) can0 1a3#100
(1.289200) can0 1ed#801A9000000003329
(1.289400) can0 1aa#70062A63F62A000
(1.289650) can0 1ba#816A06A062A7BC8AF
(1.289900) can0 1c3#8062A07BC00000000
(1.290100) can0 1c4#82762C21B020007FF
(1.290350) can0 c1#82000000020000000
(1.290550) can0 1c5#62F572BF0323D
(1.290800) can0 c5#82000000020000000
(1.291000) can0 1df#400000000
(1.291200) can0 d1#740007FFF00FF00
(1.291400) can0 1f4#6000000000000
(1.291650) can0 1e5#85CFFD07FFF0003E5
(1.291800) can0 287#3820000
(1.292050) can0 1e9#80FF8000EA0020000
(1.292250) can0 451#6000000000000
(1.292500) can0 232#80000010000006000
(1.292750) can0 7e8#803410B66AAAAAAAA
(1.292950) can0 348#5000000001B
(1.293200) can0 c7#400000000
(1.293450) can0 f9#80000400000000006
(1.295000) can0 1cc#50000000000
(1.295200) can0 1c6#82A6F2FD100C340B9
(1.295350) can0 1cf#3000005
(1.295600) can0 321#80000F4FF7FBFDFE0
(1.295800) can0 34a#50000000000
(1.295950) can0 350#400000C00
(1.296200) can0 77a#7001A0000000003
(1.298050) can0 f1#6280000400000
(1.299600) can0 189#8CFFF0FFF2FFEFFF0
(1.299850) can0 19d#8C0003FFD000000FF
(1.300100) can0 aa#82A8B2F570250A800
(1.300350) can0 c1#83000000030000000
(1.300550) can0 be#6000000000000
(1.300800) can0 c5#83000000030000000
(1.301050) can0 c9#80000002000000800
(1.301250) can0 d1#78000BFFE00FE00
(1.301400) can0 d3#22A88
(1.301550) can0 185#2000A
(1.301800) can0 18e#800000062A62B062B
(1.301900) can0 1a6#104
(1.302100) can0 1af#800000011000000FF
(1.302350) can0 1c7#7096E369200003F
(1.302600) can0 1ed#801A9000000003329
(1.302850) can0 1e5#85CFFCE1FFE000382
(1.303050) can0 1f5#80F0F002100000300
(1.303300) can0 34c#819800003000A0FF8
(1.303550) can0 451#6000000000000
(1.304950) can0 1ce#4180007FD
(1.305150) can0 362#400000000
(1.305650) can0 c7#400000000
(1.306150) can0 f9#80000400000000006
(1.308050) can0 f1#6340000400000
(1.309850) can0 7e8#804410C0000AAAAAA
(1.310100) can0 c1#80000000000000000
(1.310400) can0 c5#80000000000000000
(1.310600) can0 d1#7C000FFFD00FD00
(1.310850) can0 1e1#7000004000008E0
(1.311100) can0 1e5#85CFFCE3FFE0003A2
(1.311350) can0 1e9#80FF8000EA0030000
(1.311600) can0 232#80000010000006000
(1.312550) can0 aa#82A8B2F570450A700
(1.312750) can0 be#60400000001FF
(1.313000) can0 c9#80000002700000800
(1.313200) can0 1a1#700100000625200
(1.313300) can0 d3#22A88
(1.313450) can0 1a3#100
(1.313700) can0 18e#800000062A62B062B
(1.313900) can0 1aa#70062A63F62A000
(1.314150) can0 1ed#801A9000000003329
(1.314350) can0 1ba#816A06A062A7BC8AF
(1.314500) can0 1f3#3808000
(1.314750) can0 1c3#8062A07BC00000000
(1.315000) can0 788#7008F0000000000
(1.315250) can0 1c4#84A62C21B040005FE
(1.315450) can0 1cc#50000000000
(1.315600) can0 1c5#62F572BF0323D
(1.315850) can0 451#6000000000000
(1.316000) can0 1df#400000000
(1.316200) can0 1f4#6000000000000
(1.316400) can0 287#3C10000
(1.316600) can0 2c3#8062A062A0000CD10
(1.318050) can0 f1#6000000400000
(1.318250) can0 c7#400000000
(1.318500) can0 f9#80000400000000006
(1.320350) can0 c1#81000000010000000
(1.320600) can0 321#8000014FF7FBFDFE0
(1.320850) can0 c5#81000000010000000
(1.321100) can0 d1#700000000000000
(1.321250) can0 185#2000A
(1.321450) can0 1c6#82A6F2FD1000340BC
(1.321700) can0 1c7#7096E769100003F
(1.321950) can0 1e5#85CFFCD5FFD0003C0
(1.322150) can0 1fc#80104FF98000001DB
(1.324700) can0 189#80FFF0FFF3001FFF0
(1.324900) can0 17d#6222442FF0000
(1.325100) can0 aa#82A8B2F570650A600
(1.325350) can0 19d#800000000000000FF
(1.325550) can0 be#60800000001FE
(1.325700) can0 1a6#104
(1.325950) can0 c9#80000002A00000800
(1.326150) can0 1af#800000011000000FF
(1.326300) can0 d3#22A88
(1.326500) can0 1ce#400000000
(1.326700) can0 18e#800000062A62B062B
(1.326950) can0 1f5#80F0F002100000300
(1.327200) can0 1ed#801A9000000003329
(1.327350) can0 210#4020001FF
(1.328050) can0 f1#61C0000400000
(1.330200) can0 c1#82000000020000000
(1.330450) can0 c5#82000000020000000
(1.330650) can0 c7#400000000
(1.330850) can0 d1#740007FFF00FF00
(1.331100) can0 f9#80000400000000006
(1.331350) can0 1e5#85CFFCD7FFD0003E0
(1.331550) can0 451#6000000000000
(1.331800) can0 1e9#80FF8000EA0020000
(1.332050) can0 214#6000000000000
(1.332300) can0 232#80000010000006000
(1.334950) can0 182#80000000000000000
(1.335150) can0 1cc#50000000000
(1.335400) can0 2f9#70B000000000000
(1.337500) can0 aa#82A8B2F570050A900
(1.337700) can0 be#60C00000001FD
(1.337950) can0 c9#80000002D00000800
(1.338150) can0 f1#6280203400000
(1.338300) can0 d3#22A88
(1.338500) can0 1a1#700100000625200
(1.338750) can0 18e#800000062A62B062B
(1.338850) can0 1a3#100
(1.339100) can0 1ed#801A9000000003329
(1.339300) can0 1aa#70062A63F62A000
(1.339550) can0 1ba#816A06A062A7BC8AF
(1.339800) can0 1c3#8062A07BC00000000
(1.340050) can0 1c4#86D62C21B060003FD
(1.340250) can0 c1#83000000030000000
(1.340500) can0 1c5#62F572BF0323D
(1.340750) can0 c5#83000000030000000
(1.340900) can0 1df#400000000
(1.341150) can0 d1#78000BFFE00FE00
(1.341350) can0 1e1#700000400010DDF
(1.341500) can0 185#20009
(1.341700) can0 1f4#6000000000000
(1.341900) can0 1c7#7096EB69000003F
(1.342050) can0 287#3000000
(1.342300) can0 1e5#85CFFCD1FFD000380
(1.342500) can0 348#5000000001B
(1.343150) can0 1f3#3C0C000
(1.343300) can0 c7#400000000
(1.343550) can0 f9#80000400000000006
(1.345100) can0 1c6#82A6F2FD1004340BB
(1.345300) can0 1ce#4080007FF
(1.345500) can0 321#8000034FF7FBFDFE0
(1.345750) can0 34a#50000000000
(1.345900) can0 350#400000C00
(1.347300) can0 7e8#80441100000AAAAAA
(1.348000) can0 f1#6340000400000
(1.349650) can0 189#84FFF0FFF3000FFF0
(1.349900) can0 19d#840003FFF000000FF
(1.350100) can0 aa#82A8B2F570250A800
(1.350350) can0 c1#80000000000000000
(1.350600) can0 be#6000000000000
(1.350850) can0 c5#80000000000000000
(1.351050) can0 c9#80000002000000800
(1.351300) can0 d1#7C000FFFD00FD00
(1.351450) can0 d3#22A88
(1.351650) can0 12a#830E2705F00001090
(1.351900) can0 18e#800000062A62B062B
(1.352000) can0 1a6#104
(1.352250) can0 1af#800000011000000FF
(1.352500) can0 1e5#85CFFCB3FFC00039D
(1.352750) can0 1ed#801A9000000003329
(1.353000) can0 1e9#80FF8000EA0010000
(1.353200) can0 135#800080C326614142F
(1.353450) can0 1f5#80F0F002100000300
(1.353700) can0 232#80000010000006000
(1.353950) can0 34c#8017A000100090FF8
(1.355000) can0 1cc#50000000000
(1.355150) can0 362#400000000
(1.355600) can0 137#80F008A510DD8080E
(1.355750) can0 c7#400000000
(1.356000) can0 f9#80000400000000006
(1.358050) can0 f1#6000000400000
(1.360100) can0 c1#81000000010000000
(1.360400) can0 c5#81000000010000000
(1.360650) can0 139#80200000000000000
(1.360850) can0 d1#700000000000000
(1.361000) can0 185#20009
(1.361200) can0 1c7#7096EF68F00003F
(1.361450) can0 1e5#85CFFCB5FFC0003BD
(1.362500) can0 aa#82A8B2F570450A700
(1.362700) can0 be#60400000001FF
(1.362950) can0 c9#80000002700000800
(1.363150) can0 160#50000000000
(1.363300) can0 d3#22A88
(1.363500) can0 1a1#700100000625200
(1.363750) can0 18e#800000062A62B062B
(1.363850) can0 1a3#100
(1.364100) can0 1ed#801A9000000003329
(1.364300) can0 1aa#70062A63F62A000
(1.364550) can0 1ba#816A06A062A7BC8AF
(1.364800) can0 1c3#8062A07BC00000000
(1.364950) can0 1ce#4100007FE
(1.365200) can0 1c4#80062C21B00000000
(1.365700) can0 1c5#62F572BF0323D
(1.365950) can0 1f1#8800A00000800007A
(1.366100) can0 1df#400000000
(1.366350) can0 1f4#6000000000000
(1.366500) can0 287#3430000
(1.366700) can0 2c3#8062A062A0000CD10
(1.366950) can0 3c1#80765140000000000
(1.367200) can0 3d1#8014C800000000000
(1.367450) can0 3d3#700C900003FFF4C
(1.367700) can0 3e9#80000000000000000
(1.368050) can0 f1#61C0000400000
(1.368250) can0 c7#400000000
(1.368500) can0 f9#80000400000000006
(1.370350) can0 c1#82000000020000000
(1.370600) can0 321#8000054FF7FBFDFE0
(1.370850) can0 c5#82000000020000000
(1.371050) can0 1e1#70000040002020E
(1.371300) can0 d1#740007FFF00FF00
(1.371550) can0 1c6#82A6F2FD1008340BA
(1.371800) can0 1e5#85CFFCB7FFC0003DD
(1.372050) can0 1e9#80FFC000EA0010000
(1.372300) can0 1fc#800F7FFCC00004309
(1.372550) can0 7e8#803411152AAAAAAAA
(1.372750) can0 232#80000010000006000
(1.373000) can0 1f3#3000000
(1.374750) can0 189#88FFF0FFF2FFFFFF0
(1.374950) can0 19d#880003FFE000000FF
(1.375200) can0 aa#82A8B2F570650A600
(1.375350) can0 1a6#104
(1.375500) can0 be#60800000001FE
(1.375750) can0 1af#800000011000000FF
(1.376000) can0 c9#80000002A00000800
(1.376200) can0 1cc#50000000000
(1.376350) can0 d3#22A88
(1.376600) can0 1f5#80F0F002100000300
(1.376850) can0 18e#800000062A62B062B
(1.377000) can0 210#4040001FE
(1.377250) can0 1ed#801A9000000003329
(1.377450) can0 32a#80000000000000000
(1.378000) can0 f1#6280000400000
(1.380200) can0 c1#83000000030000000
(1.380450) can0 c5#83000000030000000
(1.380650) can0 c7#400000000
(1.380900) can0 d0#88000800080008000
(1.381150) can0 f9#80000400000000006
(1.381400) can0 d1#78000BFFE00FE00
(1.381600) can0 3c9#80766000000000000
(1.381750) can0 185#20009
(1.381950) can0 1c7#7096E369200003F
(1.382200) can0 1e5#85CFFCB1FFC00037D
(1.382400) can0 214#6020021FF241F
(1.383050) can0 451#6000000000000
(1.384900) can0 1ce#4180007FD
(1.385150) can0 234#50000000000
(1.385350) can0 2f9#713000700000007
(1.387600) can0 aa#82A8B2F570050A900
(1.387800) can0 be#60C00000001FD
(1.388050) can0 c9#80000002D00000800
(1.388300) can0 f1#6340203400000
(1.388400) can0 d3#22A88
(1.388600) can0 1a1#700100000625200
(1.388850) can0 18e#800000062A62B062B
(1.389000) can0 1a3#100
(1.389200) can0 1ed#801A9000000003329
(1.389450) can0 1aa#70062A63F62A000
(1.389700) can0 1ba#816A06A062A7BC8AF
(1.389900) can0 1c3#8062A07BC00000000
(1.390150) can0 c1#80000000000000000
(1.390400) can0 1c4#82762C21B020007FF
(1.390650) can0 c5#80000000000000000
(1.390850) can0 1c5#62F572BF0323D
(1.391050) can0 d1#7C000FFFD00FD00
(1.391250) can0 1df#400000000
(1.391500) can0 1e5#85CFFCB3FFD00039E
(1.391700) can0 1f4#6000000000000
(1.391950) can0 1e9#80FFC000EA0010000
(1.392100) can0 287#3820000
(1.392350) can0 232#80000010000006000
(1.392550) can0 451#6000000000000
(1.392750) can0 348#5000000001B
(1.393200) can0 c7#400000000
(1.393450) can0 f9#80000400000000006
(1.394950) can0 1cc#50000000000
(1.395150) can0 1c6#82A6F2FD100C340B9
(1.395300) can0 1cf#3000005
(1.395550) can0 321#8000074FF7FBFDFE0
(1.395800) can0 34a#50000000000
(1.395950) can0 350#400000C00
(1.398050) can0 f1#6000000400000
(1.399650) can0 189#8CFFF0FFF2FFEFFF0
(1.399850) can0 19d#8C0003FFD000000FF
(1.400100) can0 aa#82A8B2F570250A800
(1.400350) can0 c1#81000000010000000
(1.400550) can0 be#6000000000000
(1.400800) can0 c5#81000000010000000
(1.401050) can0 c9#80000002000000800
(1.401300) can0 d1#700000000000000
(1.401450) can0 d3#22A88
(1.401550) can0 185#20009
(1.401800) can0 18e#800000062A62B062B
(1.401900) can0 1a6#104
(1.402150) can0 1af#800000011000000FF
(1.402350) can0 1c7#7096E769100003F
(1.402600) can0 1e1#7000004000307FD
(1.402850) can0 1e5#85CFFCB5FFE0003BF
(1.403100) can0 1ed#801A9000000003329
(1.403250) can0 1f3#3404000
(1.403450) can0 1f5#80F0F002100000300
(1.403700) can0 34c#8097E000000090FFC
(1.404950) can0 1ce#400000000
(1.405100) can0 362#400000000
(1.405650) can0 c7#400000000
(1.405900) can0 f9#80000400000000006
(1.406150) can0 3f1#800FF5A0837FF0A89
(1.408050) can0 f1#61C0000400000
(1.410150) can0 c1#82000000020000000
(1.410400) can0 c5#82000000020000000
(1.410600) can0 451#6000000000000
(1.410850) can0 d1#740007FFF00FF00
(1.411100) can0 1e5#85CFFCB7FFE0003DF
(1.411350) can0 1e9#80FFC000EA0000000
(1.411600) can0 232#80000010000006000
(1.412500) can0 aa#82A8B2F570450A700
(1.412700) can0 be#60400000001FF
(1.413000) can0 c9#80000002700000800
(1.413200) can0 1a1#700100000625200
(1.413350) can0 d3#22A88
(1.413450) can0 1a3#100
(1.413700) can0 18e#800000062A62B062B
(1.413900) can0 1aa#70062A63F62A000
(1.414150) can0 1ed#801A9000000003329
(1.414350) can0 1ba#816A06A062A7BC8AF
(1.414600) can0 1c3#8062A07BC00000000
(1.414850) can0 1c4#84A62C21B040005FE
(1.415050) can0 1cc#50000000000
(1.415250) can0 1c5#62F572BF0323D
(1.415700) can0 1df#400000000
(1.416100) can0 1f4#6000000000000
(1.416250) can0 287#3C10000
(1.416500) can0 2c3#8062A062A0000CC10
(1.416750) can0 3f9#8000000005A00B72A
(1.416900) can0 3fb#20000
(1.417150) can0 3fc#80800508A89208A89
(1.418050) can0 f1#6280000400000
(1.418250) can0 c7#400000000
(1.418500) can0 f9#80000400000000006
(1.420300) can0 c1#83000000030000000
(1.420550) can0 321#8000094FF7FBFDFE0
(1.420800) can0 c5#83000000030000000
(1.421050) can0 d1#78000BFFE00FE00
(1.421150) can0 185#20009
(1.421400) can0 1c6#82A6F2FD1000340BC
(1.421650) can0 1c7#7096EB69000003F
(1.421900) can0 1e5#85CFFCB1FFF000380
(1.422150) can0 1fc#800F7FFCC00008311
(1.424700) can0 189#80FFF0FFF3001FFF0
(1.424900) can0 17d#6222442FF0000
(1.425100) can0 aa#82A8B2F570650A600
(1.425400) can0 19d#800000000000000FF
(1.425550) can0 be#60800000001FE
(1.425700) can0 1a6#104
(1.425950) can0 c9#80000002A00000800
(1.426200) can0 1af#800000011000000FF
(1.426350) can0 d3#22A88
(1.426500) can0 1ce#4080007FF
(1.426750) can0 18e#800000062A62B062B
(1.426950) can0 1f5#80F0F002100000300
(1.427200) can0 1ed#801A9000000003329
(1.427350) can0 210#4060001FD
(1.428050) can0 f1#6340000400000
(1.430200) can0 c1#80000000000000000
(1.430500) can0 c5#80000000000000000
(1.430650) can0 c7#400000000
(1.430900) can0 d1#7C000FFFD00FD00
(1.431100) can0 f9#80000400000000006
(1.431350) can0 1e1#7000004000008E0
(1.431600) can0 1e5#85CFFCB3FFF0003A0
(1.431800) can0 1e9#80000000EA0000000
(1.432050) can0 214#6040041FE482A
(1.432300) can0 232#80000010000006000
(1.433000) can0 1f3#3808000
(1.434950) can0 182#80000000000000000
(1.435150) can0 1cc#50000000000
(1.435350) can0 2f9#71B000A0000000A
(1.435600) can0 451#6000000000000
(1.437500) can0 aa#82A8B2F570050A900
(1.437700) can0 be#60C00000001FD
(1.437950) can0 c9#80000002D00000800
(1.438150) can0 f1#6000204400000
(1.438300) can0 d3#22A88
(1.438550) can0 1a1#700100000625200
(1.438750) can0 18e#800000062A62B062B
(1.438850) can0 1a3#100
(1.439100) can0 1ed#801A9000000003329
(1.439350) can0 1aa#70062A63F62A000
(1.439600) can0 1ba#816A06A062A7BC8AF
(1.439800) can0 1c3#8062A07BC00000000
(1.440050) can0 1c4#86D62C21B060003FD
(1.440300) can0 c1#81000000010000000
(1.440500) can0 1c5#62F572BF0323D
(1.440750) can0 c5#81000000010000000
(1.440900) can0 1df#400000000
(1.441150) can0 d1#700000000000000
(1.441350) can0 1f4#6000000000000
(1.441500) can0 185#20009
(1.441650) can0 287#3000000
(1.441850) can0 1c7#7096EF68F00003F
(1.442100) can0 1e5#85CFFCB5FFF0003C0
(1.442300) can0 348#5000000001B
(1.443200) can0 c7#400000000
(1.443450) can0 f9#80000400000000006
(1.445100) can0 1c6#82A6F2FD1004340BB
(1.445300) can0 1ce#4100007FE
(1.445550) can0 321#80000B4FF7FBFDFE0
(1.445700) can0 34a#50000000000
(1.445900) can0 350#400000C00
(1.448050) can0 f1#61C0000400000
(1.449600) can0 189#84FFF0FFF3000FFF0
(1.449850) can0 19d#840003FFF000000FF
(1.450050) can0 aa#82A8B2F570250A800
(1.450300) can0 c1#82000000020000000
(1.450550) can0 be#6000000000000
(1.450800) can0 c5#82000000020000000
(1.451000) can0 c9#80000002000000800
(1.451250) can0 d1#740007FFF00FF00
(1.451400) can0 d3#22A88
(1.451600) can0 12a#830E2705F000010A0
(1.451850) can0 18e#800000062A62B062B
(1.451950) can0 1a6#104
(1.452200) can0 1af#800000011000000FF
(1.452450) can0 1e5#85CFFCB70000002D2
(1.452700) can0 1ed#801A9000000003329
(1.452950) can0 1e9#80000000EA0000000
(1.453150) can0 135#800080C326614142F
(1.453400) can0 1f5#80F0F002100000300
(1.453650) can0 232#80000010000006000
(1.453900) can0 34c#81074000000090000
(1.454950) can0 1cc#50000000000
(1.455100) can0 362#400000000
(1.455650) can0 c7#400000000
(1.455900) can0 f9#80000400000000006
(1.456150) can0 137#80F008A510DD8080E
(1.458050) can0 f1#6280000400000
(1.460100) can0 c1#83000000030000000
(1.460400) can0 c5#83000000030000000
(1.460650) can0 139#80200000000000000
(1.460850) can0 d1#78000BFFE00FE00
(1.461000) can0 185#2000A
(1.461200) can0 1c7#7096E369200003F
(1.461450) can0 1e5#85CFFCB1000000272
(1.462500) can0 aa#82A8B2F570450A700
(1.462700) can0 be#60400000001FF
(1.463000) can0 c9#80000002700000800
(1.463150) can0 160#50000000000
(1.463300) can0 d3#22A88
(1.463500) can0 1a1#700100000625200
(1.463750) can0 18e#800000062A62B062B
(1.463850) can0 1a3#100
(1.464100) can0 1ed#801A9000000003329
(1.464300) can0 1aa#70062A63F62A000
(1.464550) can0 1ba#816A06A062A7BC8AF
(1.464800) can0 1c3#8062A07BC00000000
(1.464950) can0 1ce#4180007FD
(1.465200) can0 1c4#80062C21B00000000
(1.465700) can0 1c5#62F572BF0323D
(1.465900) can0 1e1#700000400010DDF
(1.466100) can0 1df#400000000
(1.466300) can0 1f4#6000000000000
(1.466450) can0 287#3430000
(1.466700) can0 2c3#8062A062A0000CD10
(1.466950) can0 3c1#80765140000000000
(1.467200) can0 3d1#8014C800000000000
(1.467400) can0 3d3#700C900005FFE4C
(1.467650) can0 3e9#80000000000000000
(1.468100) can0 f1#6340000400000
(1.468250) can0 c7#400000000
(1.468500) can0 f9#80000400000000006
(1.470350) can0 c1#80000000000000000
(1.470550) can0 321#80000D4FF7FBFDFE0
(1.470850) can0 c5#80000000000000000
(1.471050) can0 1f1#8800A00000800007A
(1.471300) can0 d1#7C000FFFD00FD00
(1.471550) can0 1c6#82A6F2FD1008340BA
(1.471750) can0 1e5#85CFFCB3000000292
(1.472000) can0 1e9#80004000EA0000000
(1.472300) can0 1fc#8010400340000C090
(1.472500) can0 7e8#803410A00AAAAAAAA
(1.472750) can0 232#80000010000006000
(1.473000) can0 1f3#3C0C000
(1.474750) can0 189#88FFF0FFF2FFFFFF0
(1.475000) can0 19d#880003FFE000000FF
(1.475200) can0 aa#82A8B2F570650A600
(1.475300) can0 1a6#104
(1.475500) can0 be#60800000001FE
(1.475750) can0 1af#800000011000000FF
(1.476000) can0 c9#80000002A00000800
(1.476250) can0 1cc#50000000000
(1.476350) can0 d3#22A88
(1.476600) can0 1f5#80F0F002100000300
(1.476850) can0 18e#800000062A62B062B
(1.477000) can0 210#400000000
(1.477250) can0 1ed#801A9000000003329
(1.477500) can0 32a#80000000000000000
(1.478050) can0 f1#6000000400000
(1.480200) can0 c1#81000000010000000
(1.480450) can0 c5#81000000010000000
(1.480650) can0 c7#400000000
(1.480900) can0 d0#88000800080008000
(1.481150) can0 f9#80000400000000006
(1.481400) can0 d1#700000000000000
(1.481650) can0 3c9#80766000000000000
(1.481750) can0 185#2000A
(1.481950) can0 1c7#7096E769100003F
(1.482200) can0 1e5#85CFFCB50000002B2
(1.482400) can0 214#6060061FD6C35
(1.483050) can0 451#6000000000000
(1.484900) can0 1ce#400000000
(1.485150) can0 234#50000000000
(1.485350) can0 2f9#723000D0000000D
(1.487600) can0 aa#82A8B2F570050A900
(1.487800) can0 be#60C00000001FD
(1.488050) can0 c9#80000002D00000800
(1.488200) can0 f1#61C0204400000
(1.488350) can0 d3#22A88
(1.488600) can0 1a1#700100000625200
(1.488850) can0 18e#800000062A62B062B
(1.488950) can0 1a3#100
(1.489150) can0 1ed#801A9000000003329
(1.489400) can0 1aa#70062A63F62A000
(1.489600) can0 1ba#816A06A062A7BC8AF
(1.489850) can0 1c3#8062A07BC00000000
(1.490100) can0 1c4#82762C21B020007FF
(1.490350) can0 c1#82000000020000000
(1.490550) can0 1c5#62F572BF0323D
(1.490800) can0 c5#82000000020000000
(1.490950) can0 1df#400000000
(1.491200) can0 d1#740007FFF00FF00
(1.491400) can0 1e1#70000040002020E
(1.491650) can0 1e5#85CFFCB70000002D2
(1.491900) can0 1f4#6000000000000
(1.492150) can0 1e9#80004000EA0010000
(1.492300) can0 287#3820000
(1.492500) can0 232#80000010000006000
(1.492750) can0 7e8#803410B66AAAAAAAA
(1.492950) can0 348#5000000001B
(1.493100) can0 1f3#3000000
(1.493300) can0 c7#400000000
(1.493550) can0 f9#80000400000000006
(1.494900) can0 1cc#50000000000
(1.495150) can0 1c6#82A6F2FD100C340B9
(1.495300) can0 1cf#3000005
(1.495550) can0 321#80000F4FF7FBFDFE0
(1.495750) can0 34a#50000000000
(1.495900) can0 350#400000C00
(1.496100) can0 451#6000000000000
(1.498050) can0 f1#6280000400000
(1.499650) can0 189#8CFFF0FFF2FFEFFF0
(1.499900) can0 19d#8C0003FFD000000FF
(1.500100) can0 aa#82A8B2F570250A800
(1.500400) can0 c1#83000000030000000
(1.500600) can0 be#6000000000000
(1.500850) can0 c5#83000000030000000
(1.501100) can0 c9#80000002000000800
(1.501300) can0 d1#78000BFFE00FE00
(1.501450) can0 d3#22A88
(1.501600) can0 185#2000A
(1.501850) can0 18e#800000062A62B062B
(1.501950) can0 1a6#104
(1.502200) can0 1af#800000011000000FF
(1.502400) can0 1c7#7096EB69000003F
(1.502650) can0 1ed#801A9000000003329
(1.502850) can0 1e5#85CFFCB1000000272
(1.503100) can0 1f5#80F0F002100000300
(1.503350) can0 34c#8187E0000000A0008
(1.504950) can0 1ce#4080007FF
(1.505150) can0 362#400000000
(1.505700) can0 c7#400000000
(1.505900) can0 f9#80000400000000006
(1.508050) can0 f1#6340000400000
(1.509900) can0 7e8#804410C0000AAAAAA
(1.510150) can0 c1#80000000000000000
(1.510400) can0 c5#80000000000000000
(1.510600) can0 451#6000000000000
(1.510850) can0 d1#7C000FFFD00FD00
(1.511100) can0 1e5#85CFFCB3000000292
(1.511350) can0 1e9#80008000EA0000000
(1.511600) can0 232#80000010000006000
(1.512550) can0 aa#82A8B2F570450A700
(1.512800) can0 be#60400000001FF
(1.513050) can0 c9#80000002700000800
(1.513300) can0 121#80000000000000000
(1.513450) can0 d3#22A88
(1.513650) can0 1a1#700100000625200
(1.513900) can0 18e#800000062A62B062B
(1.514000) can0 1a3#100
(1.514200) can0 1ed#801A9000000003329
(1.514450) can0 1aa#70062A63F62A000
(1.514700) can0 1ba#816A06A062A7BC8AF
(1.514900) can0 1c3#8062A07BC00000000
(1.515150) can0 1cc#50000000000
(1.515400) can0 1c4#84A62C21B040005FE
(1.515800) can0 1c5#62F572BF0323D
(1.516200) can0 1df#400000000
(1.516400) can0 1f4#6000000000000
(1.516550) can0 287#3C10000
(1.516800) can0 2c3#8062A062A0000CD10
(1.518050) can0 f1#6000000400000
(1.518250) can0 c7#400000000
(1.518500) can0 f9#80000400000000006
(1.520300) can0 c1#81000000010000000
(1.520550) can0 321#8000014FF7FBFDFE0
(1.520800) can0 c5#81000000010000000
(1.521050) can0 1e1#7000004000307FD
(1.521250) can0 d1#700000000000000
(1.521400) can0 185#2000A
(1.521650) can0 1c6#82A6F2FD1000340BC
(1.521900) can0 1c7#7096EF68F00003F
(1.522150) can0 1e5#85CFFCD50000002B4
(1.522350) can0 7e8#803413365AAAAAAAA
(1.522600) can0 1fc#801110068000000B9
(1.523000) can0 1f3#3404000
(1.524700) can0 189#80FFF0FFF3001FFF0
(1.524900) can0 17d#6222442FF0000
(1.525150) can0 aa#82A8B2F570650A600
(1.525400) can0 19d#800000000000000FF
(1.525550) can0 be#60800000001FE
(1.525700) can0 1a6#104
(1.525950) can0 c9#80000002A00000800
(1.526200) can0 1af#800000011000000FF
(1.526350) can0 d3#22A88
(1.526500) can0 1ce#4100007FE
(1.526750) can0 18e#800000062A62B062B
(1.527000) can0 1f5#80F0F002100000300
(1.527200) can0 1ed#801A9000000003329
(1.527350) can0 210#4020001FF
(1.528050) can0 f1#61C0000400000
(1.530200) can0 c1#82000000020000000
(1.530500) can0 c5#82000000020000000
(1.530650) can0 c7#400000000
(1.530900) can0 d1#740007FFF00FF00
(1.531150) can0 f9#80000400000000006
(1.531350) can0 1e5#85CFFCB70000002D2
(1.531600) can0 451#6000000000000
(1.531800) can0 1e9#8000C000EA0010000
(1.532050) can0 214#6000000000000
(1.532300) can0 232#80000010000006000
(1.534950) can0 182#80000000000000000
(1.535150) can0 1cc#50000000000
(1.535400) can0 2f9#72B000000000000
(1.537500) can0 aa#82A8B2F570050A900
(1.537700) can0 be#60C00000001FD
(1.537950) can0 c9#80000002D00000800
(1.538200) can0 f1#6280204400000
(1.538300) can0 d3#22A88
(1.538500) can0 1a1#700100000625200
(1.538750) can0 18e#800000062A62B062B
(1.538900) can0 1a3#100
(1.539100) can0 1ed#801A9000000003329
(1.539350) can0 1aa#70062A63F62A000
(1.539550) can0 1ba#816A06A062A7BC8AF
(1.539800) can0 1c3#8062A07BC00000000
(1.540050) can0 1c4#86D62C21B060003FD
(1.540300) can0 c1#83000000030000000
(1.540500) can0 1c5#62F572BF0323D
(1.540750) can0 c5#83000000030000000
(1.540900) can0 1df#400000000
(1.541150) can0 d1#78000BFFE00FE00
(1.541350) can0 1f4#6000000000000
(1.541450) can0 185#2000A
(1.541650) can0 287#3000000
(1.541850) can0 1c7#7096E369200003F
(1.542100) can0 1e5#85CFFCB1000000272
(1.542300) can0 348#5000000001B
(1.543200) can0 c7#400000000
(1.543450) can0 f9#80000400000000006
(1.545100) can0 1c6#82A6F2FD1004340BB
(1.545300) can0 1ce#4180007FD
(1.545550) can0 321#8000034FF7FBFDFE0
(1.545700) can0 34a#50000000000
(1.545900) can0 350#400000C00
(1.547350) can0 7e8#803410400AAAAAAAA
(1.548050) can0 f1#6340000400000
(1.549600) can0 189#84FFF0FFF3000FFF0
(1.549850) can0 19d#840003FFF000000FF
(1.550100) can0 aa#82A8B2F570250A800
(1.550350) can0 c1#80000000000000000
(1.550550) can0 be#6000000000000
(1.550800) can0 c5#80000000000000000
(1.551050) can0 c9#80000002000000800
(1.551300) can0 d1#7C000FFFD00FD00
(1.551400) can0 d3#22A88
(1.551650) can0 12a#830E2705F000010B0
(1.551900) can0 18e#800000062A62B062B
(1.552000) can0 1a6#104
(1.552250) can0 1af#800000011000000FF
(1.552500) can0 1e5#85CFFCB3000000292
(1.552750) can0 1ed#801A9000000003329
(1.553000) can0 1e9#8000C000EA0010000
(1.553200) can0 135#800080C326614142F
(1.553450) can0 1f5#80F0F002100000300
(1.553700) can0 232#80000010000006000
(1.553950) can0 34c#800800001000A000C
(1.554900) can0 1cc#50000000000
(1.555100) can0 362#400000000
(1.555600) can0 137#80F008A510DD8080E
(1.555800) can0 c7#400000000
(1.556050) can0 f9#80000400000000006
(1.558050) can0 f1#6000000400000
(1.560100) can0 c1#81000000010000000
(1.560400) can0 c5#81000000010000000
(1.560650) can0 139#80200000000000000
(1.560850) can0 d1#700000000000000
(1.561000) can0 185#2000A
(1.561200) can0 1c7#7096E769100003F
(1.561450) can0 1e5#85CFFCB50000002B2
(1.562500) can0 aa#82A8B2F570450A700
(1.562700) can0 be#60400000001FF
(1.562950) can0 c9#80000002700000800
(1.563150) can0 160#50000000000
(1.563300) can0 d3#22A88
(1.563500) can0 1a1#700100000625200
(1.563750) can0 18e#800000062A62B062B
(1.563850) can0 1a3#100
(1.564100) can0 1ed#801A9000000003329
(1.564350) can0 1aa#70062A63F62A000
(1.564550) can0 1ba#816A06A062A7BC8AF
(1.564800) can0 1c3#8062A07BC00000000
(1.564950) can0 1ce#400000000
(1.565200) can0 1c4#80062C21B00000000
(1.565700) can0 1c5#62F572BF0323D
(1.565900) can0 1e1#7000004000008E0
(1.566100) can0 1df#400000000
(1.566300) can0 1f4#6000000000000
(1.566450) can0 287#3430000
(1.566700) can0 2c3#8062A062A0000CD10
(1.566950) can0 3c1#80765140000000000
(1.567200) can0 3d1#8014C800000000000
(1.567400) can0 3d3#700C900007FFD4C
(1.567650) can0 3e9#80000000000000000
(1.568050) can0 f1#61C0000400000
(1.568250) can0 c7#400000000
(1.568500) can0 f9#80000400000000006
(1.570350) can0 c1#82000000020000000
(1.570550) can0 321#8000054FF7FBFDFE0
(1.570850) can0 c5#82000000020000000
(1.571100) can0 1f1#8800A00000800007A
(1.571300) can0 d1#740007FFF00FF00
(1.571550) can0 1c6#82A6F2FD1008340BA
(1.571800) can0 1e5#85CFFCB70000002D2
(1.572000) can0 1e9#80010000EA0010000
(1.572300) can0 1fc#8011100D000004129
(1.572500) can0 7e8#803411152AAAAAAAA
(1.572750) can0 232#80000010000006000
(1.573000) can0 1f3#3808000
(1.574750) can0 189#88FFF0FFF2FFFFFF0
(1.575000) can0 19d#880003FFE000000FF
(1.575250) can0 aa#82A8B2F570650A600
(1.575300) can0 1a6#104
(1.575550) can0 be#60800000001FE
(1.575800) can0 1af#800000011000000FF
(1.576000) can0 c9#80000002A00000800
(1.576250) can0 1cc#50000000000
(1.576350) can0 d3#22A88
(1.576600) can0 1f5#80F0F002100000300
(1.576850) can0 18e#800000062A62B062B
(1.577000) can0 210#4040001FE
(1.577250) can0 1ed#801A9000000003329
(1.577500) can0 32a#80000000000000000
(1.578050) can0 f1#6280000400000
(1.580250) can0 c1#83000000030000000
(1.580450) can0 c5#83000000030000000
(1.580650) can0 c7#400000000
(1.580900) can0 d0#88000800080008000
(1.581150) can0 f9#80000400000000006
(1.581350) can0 d1#78000BFFE00FE00
(1.581600) can0 1e1#700000400010DDF
(1.581750) can0 185#2000A
(1.581950) can0 1c7#7096EB69000003F
(1.582200) can0 1e5#85CFFCB1000000272
(1.582450) can0 214#6020021FF241F
(1.583000) can0 1f3#3C0C000
(1.584900) can0 1ce#4080007FF
(1.585100) can0 234#50000000000
(1.585350) can0 2f9#733000700000007
(1.585550) can0 3c9#80766000000000000
(1.587600) can0 aa#82A8B2F570050A900
(1.587800) can0 be#60C00000001FD
(1.588050) can0 c9#80000002D00000800
(1.588250) can0 f1#6340203400000
(1.588400) can0 d3#22A88
(1.588600) can0 1a1#700100000625200
(1.588850) can0 18e#800000062A62B062B
(1.588950) can0 1a3#100
(1.589200) can0 1ed#801A9000000003329
(1.589400) can0 1aa#70062A63F62A000
(1.589650) can0 1ba#816A06A062A7BC8AF
(1.589850) can0 1c3#8062A07BC00000000
(1.590100) can0 1c4#82762C21B020007FF
(1.590350) can0 c1#80000000000000000
(1.590600) can0 1c5#62F572BF0323D
(1.590800) can0 c5#80000000000000000
(1.591000) can0 1df#400000000
(1.591200) can0 d1#7C000FFFD00FD00
(1.591450) can0 1f4#6000000000000
(1.591650) can0 1e5#85CFFCB3000000292
(1.591850) can0 287#3820000
(1.592050) can0 1e9#8000C000EA0010000
(1.592300) can0 451#6000000000000
(1.592550) can0 232#80000010000006000
(1.592700) can0 348#5000000001B
(1.593250) can0 c7#400000000
(1.593500) can0 f9#80000400000000006
(1.594900) can0 1cc#50000000000
(1.595100) can0 1c6#82A6F2FD100C340B9
(1.595300) can0 1cf#3000005
(1.595500) can0 321#8000074FF7FBFDFE0
(1.595700) can0 34a#50000000000
(1.595900) can0 350#400000C00
(1.598050) can0 f1#6000000400000
(1.599650) can0 189#8CFFF0FFF2FFEFFF0
(1.599900) can0 19d#8C0003FFD000000FF
(1.600150) can0 aa#82A8B2F570250A800
(1.600350) can0 c1#81000000010000000
(1.600600) can0 be#6000000000000
(1.600850) can0 c5#81000000010000000
(1.601050) can0 c9#80000002000000800
(1.601300) can0 d1#700000000000000
(1.601450) can0 d3#22A88
(1.601550) can0 185#2000A
(1.601800) can0 18e#800000062A62B062B
(1.601950) can0 1a6#104
(1.602150) can0 1af#800000011000000FF
(1.602400) can0 1c7#7096EF68F00003F
(1.602650) can0 1ed#801A9000000003329
(1.602850) can0 1e5#85CFFCB50000002B2
(1.603100) can0 1f5#80F0F002100000300
(1.603350) can0 34c#808810001000A000C
(1.603550) can0 451#6000000000000
(1.605000) can0 1ce#4100007FE
(1.605150) can0 362#400000000
(1.605700) can0 c7#400000000
(1.605950) can0 f9#80000400000000006
(1.608050) can0 f1#61C0000400000
(1.610150) can0 c1#82000000020000000
(1.610400) can0 c5#82000000020000000
(1.610650) can0 1e1#70000040002020E
(1.610850) can0 d1#740007FFF00FF00
(1.611100) can0 1e5#85CFFCB70000002D2
(1.611350) can0 1e9#8000C000EA0020000
(1.611600) can0 232#80000010000006000
(1.612500) can0 aa#82A8B2F570450A700
(1.612750) can0 be#60400000001FF
(1.613000) can0 c9#80000002700000800
(1.613200) can0 1a1#700100000625200
(1.613350) can0 d3#22A88
(1.613450) can0 1a3#100
(1.613700) can0 18e#800000062A62B062B
(1.613900) can0 1aa#70062A63F62A000
(1.614150) can0 1ed#801A9000000003329
(1.614400) can0 1ba#816A06A062A7BC8AF
(1.614550) can0 1f3#3000000
(1.614800) can0 1c3#8062A07BC00000000
(1.614950) can0 1cc#50000000000
(1.615200) can0 1c4#84A62C21B040005FE
(1.615500) can0 1c5#62F572BF0323D
(1.615650) can0 451#6000000000000
(1.615850) can0 1df#400000000
(1.616300) can0 1f4#6000000000000
(1.616450) can0 287#3C10000
(1.616700) can0 2c3#8062A062A0000CD10
(1.618050) can0 f1#6280000400000
(1.618300) can0 c7#400000000
(1.618550) can0 f9#80000400000000006
(1.620350) can0 c1#83000000030000000
(1.620600) can0 321#8000094FF7FBFDFE0
(1.620850) can0 c5#83000000030000000
(1.621050) can0 d1#78000BFFE00FE00
(1.621200) can0 185#2000B
(1.621450) can0 1c6#82A6F2FD1000340BC
(1.621650) can0 1c7#7096E369200003F
(1.621900) can0 1e5#85CFFCB1000000272
(1.622200) can0 1fc#8011E009C0000810A
(1.624750) can0 189#80FFF0FFF3001FFF0
(1.624950) can0 aa#82A8B2F570650A600
(1.625200) can0 17d#6222442FF0000
(1.625400) can0 be#60800000001FE
(1.625650) can0 19d#800000000000000FF
(1.625900) can0 c9#80000002A00000800
(1.626000) can0 1a6#104
(1.626150) can0 d3#22A88
(1.626350) can0 1af#800000011000000FF
(1.626600) can0 18e#800000062A62B062B
(1.626750) can0 1ce#4180007FD
(1.627000) can0 1ed#801A9000000003329
(1.627250) can0 1f5#80F0F002100000300
(1.627450) can0 210#4060001FD
(1.628100) can0 f1#6340000400000
(1.630200) can0 c1#80000000000000000
(1.630450) can0 c5#80000000000000000
(1.630650) can0 c7#400000000
(1.630900) can0 d1#7C000FFFD00FD00
(1.631150) can0 f9#80000400000000006
(1.631350) can0 1e5#85CFFCD3000000294
(1.631550) can0 451#6000000000000
(1.631800) can0 1e9#8000C000EA0020000
(1.632000) can0 214#6040041FE482A
(1.632300) can0 232#80000010000006000
(1.634900) can0 1cc#50000000000
(1.635150) can0 182#80000000000000000
(1.635400) can0 2f9#73B000A0000000A
(1.637550) can0 aa#82A8B2F570050A900
(1.637750) can0 be#60C00000001FD
(1.638000) can0 c9#80000002D00000800
(1.638200) can0 f1#6000203400000
(1.638350) can0 d3#22A88
(1.638550) can0 1a1#700100000625200
(1.638800) can0 18e#800000062A62B062B
(1.638900) can0 1a3#100
(1.639150) can0 1ed#801A9000000003329
(1.639350) can0 1aa#70062A63F62A000
(1.639600) can0 1ba#816A06A062A7BC8AF
(1.639850) can0 1c3#8062A07BC00000000
(1.640100) can0 1c4#86D62C21B060003FD
(1.640300) can0 c1#81000000010000000
(1.640550) can0 1c5#62F572BF0323D
(1.640800) can0 c5#81000000010000000
(1.640950) can0 1df#400000000
(1.641150) can0 d1#700000000000000
(1.641400) can0 1e1#7000004000307FD
(1.641550) can0 185#2000B
(1.641750) can0 1f4#6000000000000
(1.641950) can0 1c7#7096E769100003F
(1.642100) can0 287#3000000
(1.642350) can0 1e5#85CFFCB50000002B2
(1.642550) can0 348#5000000001B
(1.643000) can0 1f3#3404000
(1.643200) can0 c7#400000000
(1.643450) can0 f9#80000400000000006
(1.645100) can0 1c6#82A6F2FD1004340BB
(1.645300) can0 1ce#400000000
(1.645550) can0 321#80000B4FF7FBFDFE0
(1.645700) can0 34a#50000000000
(1.645850) can0 324#30000FF
(1.646100) can0 350#400000C00
(1.648050) can0 f1#61C0000400000
(1.649650) can0 189#84FFF0FFF3000FFF0
(1.649850) can0 19d#840003FFF000000FF
(1.650100) can0 aa#82A8B2F570250A800
(1.650350) can0 c1#82000000020000000
(1.650550) can0 be#6000000000000
(1.650800) can0 c5#82000000020000000
(1.651050) can0 c9#80000002000000800
(1.651300) can0 d1#740007FFF00FF00
(1.651450) can0 d3#22A88
(1.651650) can0 12a#830E2705F00001080
(1.651900) can0 18e#800000062A62B062B
(1.652000) can0 1a6#104
(1.652250) can0 1af#800000011000000FF
(1.652500) can0 1e5#85CFFCB70000002D2
(1.652750) can0 1ed#801A9000000003329
(1.653000) can0 1e9#80008000EA0020000
(1.653200) can0 135#800080C326614142F
(1.653450) can0 1f5#80F0F002100000300
(1.653700) can0 232#80000010000006000
(1.653950) can0 34c#810800002000B0008
(1.654900) can0 1cc#50000000000
(1.655050) can0 362#400000000
(1.655600) can0 137#80F008A510DD8080E
(1.655800) can0 c7#400000000
(1.656050) can0 f9#80000400000000006
(1.658050) can0 f1#6280000400000
(1.660150) can0 c1#83000000030000000
(1.660350) can0 c5#83000000030000000
(1.660600) can0 139#80200000000000000
(1.660850) can0 d1#78000BFFE00FE00
(1.661000) can0 185#2000B
(1.661200) can0 1c7#7096EB69000003F
(1.661450) can0 1e5#85CFFCB1000000272
(1.662500) can0 aa#82A8B2F570450A700
(1.662700) can0 be#60400000001FF
(1.662950) can0 c9#80000002700000800
(1.663150) can0 160#50000000000
(1.663300) can0 d3#22A88
(1.663500) can0 1a1#700100000625200
(1.663750) can0 18e#800000062A62B062B
(1.663850) can0 1a3#100
(1.664100) can0 1ed#801A9000000003329
(1.664300) can0 1aa#70062A63F62A000
(1.664550) can0 1ba#816A06A062A7BC8AF
(1.664800) can0 1c3#8062A07BC00000000
(1.665000) can0 1ce#4080007FF
(1.665200) can0 1c4#80062C21B00000000
(1.665700) can0 1c5#62F572BF0323D
(1.665950) can0 1f1#8800A00000800007A
(1.666100) can0 1df#400000000
(1.666300) can0 1f4#6000000000000
(1.666450) can0 287#3430000
(1.666700) can0 2c3#8062A062A0000CD10
(1.666950) can0 3c1#80765140000000000
(1.667200) can0 3d1#8014C800000000000
(1.667450) can0 3d3#700C9000000004C
(1.667700) can0 3e9#80000000000000000
(1.667950) can0 3f9#8000000005A00B72A
(1.668150) can0 f1#6340000400000
(1.668300) can0 c7#400000000
(1.668550) can0 f9#80000400000000006
(1.668700) can0 3fb#20000
(1.668950) can0 3fc#80800508A89208A89
(1.669200) can0 4c1#810C9524C89000000
(1.669350) can0 4c7#311B400
(1.669550) can0 4d1#7000000031EAE00
(1.670400) can0 c1#80000000000000000
(1.670600) can0 321#80000D4FF7FBFDFE0
(1.670900) can0 c5#80000000000000000
(1.671100) can0 1e1#7000004000008E0
(1.671350) can0 d1#7C000FFFD00FD00
(1.671550) can0 1c6#82A6F2FD1008340BA
(1.671800) can0 1e5#85CFFCB3000000292
(1.672100) can0 1e9#80008000EA0010000
(1.672350) can0 1fc#8012B00680000C0EB
(1.672600) can0 7e8#803410A00AAAAAAAA
(1.672800) can0 232#80000010000006000
(1.673000) can0 1f3#3808000
(1.674750) can0 189#88FFF0FFF2FFFFFF0
(1.675000) can0 19d#880003FFE000000FF
(1.675250) can0 aa#82A8B2F570650A600
(1.675350) can0 1a6#104
(1.675550) can0 be#60800000001FE
(1.675800) can0 1af#800000011000000FF
(1.676050) can0 c9#80000002A00000800
(1.676250) can0 1cc#50000000000
(1.676400) can0 d3#22A88
(1.676650) can0 1f5#80F0F002100000300
(1.676900) can0 18e#800000062A62B062B
(1.677050) can0 210#400000000
(1.677300) can0 1ed#801A9000000003329
(1.677500) can0 32a#80000000000000000
(1.678050) can0 f1#6000000400000
(1.680250) can0 c1#81000000010000000
(1.680500) can0 c5#81000000010000000
(1.680650) can0 c7#400000000
(1.680900) can0 d0#88000800080008000
(1.681150) can0 f9#80000400000000006
(1.681350) can0 d1#700000000000000
(1.681600) can0 3c9#80766000000000000
(1.681750) can0 185#2000B
(1.682000) can0 1c7#7096EF68F00003F
(1.682200) can0 1e5#85CFFCD50000002B4
(1.682450) can0 214#6060061FD6C35
(1.683100) can0 3f1#800FF5A0837FF0A89
(1.684950) can0 1ce#4100007FE
(1.685100) can0 234#50000000000
(1.685350) can0 2f9#743000D0000000D
(1.685600) can0 451#6000000000000
(1.687600) can0 aa#82A8B2F570050A900
(1.687800) can0 be#60C00000001FD
(1.688050) can0 c9#80000002D00000800
(1.688250) can0 f1#61C0204400000
(1.688400) can0 d3#22A88
(1.688600) can0 1a1#700100000625200
(1.688850) can0 18e#800000062A62B062B
(1.688950) can0 1a3#100
(1.689200) can0 1ed#801A9000000003329
(1.689400) can0 1aa#70062A63F62A000
(1.689650) can0 1ba#816A06A062A7BC8AF
(1.689900) can0 1c3#8062A07BC00000000
(1.690100) can0 1c4#82762C21B020007FF
(1.690350) can0 c1#82000000020000000
(1.690600) can0 1c5#62F572BF0323D
(1.690850) can0 c5#82000000020000000
(1.691000) can0 1df#400000000
(1.691200) can0 d1#740007FFF00FF00
(1.691450) can0 1f4#6000000000000
(1.691700) can0 1e5#85CFFCB70000002D2
(1.691850) can0 287#3820000
(1.692100) can0 1e9#80008000EA0010000
(1.692250) can0 4c5#50000000000
(1.692500) can0 232#80000010000006000
(1.692750) can0 589#8B8327F96796350C7
(1.692950) can0 348#5000000001B
(1.693150) can0 7e8#803410B66AAAAAAAA
(1.693350) can0 c7#400000000
(1.693650) can0 f9#80000400000000006
(1.694850) can0 1cc#50000000000
(1.695100) can0 1c6#82A6F2FD100C340B9
(1.695250) can0 1cf#3000005
(1.695500) can0 321#80000F4FF7FBFDFE0
(1.695700) can0 34a#50000000000
(1.695850) can0 350#400000C00
(1.698050) can0 f1#6280000400000
(1.699700) can0 189#8CFFF0FFF2FFEFFF0
(1.699900) can0 19d#8C0003FFD000000FF
(1.700150) can0 aa#82A8B2F570250A800
(1.700400) can0 c1#83000000030000000
(1.700600) can0 be#6000000000000
(1.700850) can0 c5#83000000030000000
(1.701100) can0 c9#80000002000000800
(1.701300) can0 d1#78000BFFE00FE00
(1.701500) can0 d3#22A88
(1.701600) can0 185#2000C
(1.701850) can0 18e#800000062A62B062B
(1.701950) can0 1a6#104
(1.702200) can0 1af#800000011000000FF
(1.702400) can0 1c7#7096E369200003F
(1.702650) can0 1e1#700000400010DDF
(1.702900) can0 1e5#85CFFCB1000000272
(1.703150) can0 1ed#801A9000000003329
(1.703300) can0 1f3#3C0C000
(1.703500) can0 1f5#80F0F002100000300
(1.703750) can0 34c#8187D0001000C0004
(1.704950) can0 1ce#4180007FD
(1.705100) can0 362#400000000
(1.705650) can0 c7#400000000
(1.705950) can0 f9#80000400000000006
(1.706150) can0 451#6000000000000
(1.708050) can0 f1#6340000400000
(1.710150) can0 c1#80000000000000000
(1.710400) can0 c5#80000000000000000
(1.710650) can0 d1#7C000FFFD00FD00
(1.710900) can0 1e5#85CFFCB3000000292
(1.711150) can0 1e9#80004000EA0010000
(1.711450) can0 232#80000010000006000
(1.712500) can0 aa#82A8B2F570450A700
(1.712750) can0 be#60400000001FF
(1.713000) can0 c9#80000002700000800
(1.713200) can0 1a1#700100000625200
(1.713300) can0 d3#22A88
(1.713450) can0 1a3#100
(1.713700) can0 18e#800000062A62B062B
(1.713900) can0 1aa#70062A63F62A000
(1.714150) can0 1ed#801A9000000003329
(1.714350) can0 1ba#816A06A062A7BC8AF
(1.714600) can0 1c3#8062A07BC00000000
(1.714850) can0 1c4#84A62C21B040005FE
(1.715050) can0 1cc#50000000000
(1.715250) can0 1c5#62F572BF0323D
(1.715450) can0 1df#400000000
(1.715650) can0 1f4#6000000000000
(1.715800) can0 287#3C10000
(1.716050) can0 2c3#8062A062A0000CD10
(1.718050) can0 f1#6000000400000
(1.718250) can0 c7#400000000
(1.718500) can0 f9#80000400000000006
(1.720350) can0 c1#81000000010000000
(1.720600) can0 321#8000014FF7FBFDFE0
(1.720850) can0 c5#81000000010000000
(1.721050) can0 451#6000000000000
(1.721250) can0 d1#700000000000000
(1.721400) can0 185#2000C
(1.721650) can0 1c6#82A6F2FD1000340BC
(1.721850) can0 1c7#7096E769100003F
(1.722100) can0 1e5#85CFFCB50000002B2
(1.722350) can0 1fc#801380068000000E0
(1.724650) can0 189#80FFF0FFF3001FFF0
(1.724900) can0 19d#800000000000000FF
(1.725150) can0 aa#82A8B2F570650A600
(1.725350) can0 17d#6222442FF0000
(1.725550) can0 be#60800000001FE
(1.725700) can0 1a6#104
(1.725900) can0 c9#80000002A00000800
(1.726150) can0 1af#800000011000000FF
(1.726300) can0 d3#22A88
(1.726450) can0 1ce#400000000
(1.726700) can0 18e#800000062A62B062B
(1.726950) can0 1f5#80F0F002100000300
(1.727200) can0 1ed#801A9000000003329
(1.727350) can0 210#4020001FF
(1.727600) can0 4c9#8404EC10010000000
(1.728050) can0 f1#61C0000400000
(1.730200) can0 c1#82000000020000000
(1.730450) can0 c5#82000000020000000
(1.730650) can0 c7#400000000
(1.730850) can0 d1#740007FFF00FF00
(1.731150) can0 f9#80000400000000006
(1.731350) can0 1e1#70000040002020E
(1.731600) can0 1e5#85CFFCB70000002D2
(1.731850) can0 1e9#80008000EA0010000
(1.732050) can0 214#6000000000000
(1.732350) can0 232#80000010000006000
(1.733000) can0 1f3#3000000
(1.734850) can0 1cc#50000000000
(1.735100) can0 182#80000000000000000
(1.735350) can0 2f9#74B000000000000
(1.735550) can0 451#6000000000000
(1.737500) can0 aa#82A8B2F570050A900
(1.737750) can0 be#60C00000001FD
(1.738000) can0 c9#80000002D00000800
(1.738200) can0 f1#6280204400000
(1.738300) can0 d3#22A88
(1.738550) can0 1a1#700100000625200
(1.738750) can0 18e#800000062A62B062B
(1.738900) can0 1a3#100
(1.739150) can0 1ed#801A9000000003329
(1.739350) can0 1aa#70062A63F62A000
(1.739550) can0 1ba#816A06A062A7BC8AF
(1.739800) can0 1c3#8062A07BC00000000
(1.740050) can0 1c4#86D62C21B060003FD
(1.740300) can0 c1#83000000030000000
(1.740500) can0 1c5#62F572BF0323D
(1.740750) can0 c5#83000000030000000
(1.740950) can0 1df#400000000
(1.741150) can0 d1#78000BFFE00FE00
(1.741350) can0 1f4#6000000000000
(1.741500) can0 185#2000C
(1.741650) can0 287#3000000
(1.741900) can0 1c7#7096EB69000003F
(1.742150) can0 1e5#85CFFCD1000000274
(1.742300) can0 348#5000000001B
(1.743200) can0 c7#400000000
(1.743450) can0 f9#80000400000000006
(1.745100) can0 1c6#82A6F2FD1004340BB
(1.745300) can0 1ce#4080007FF
(1.745550) can0 321#8000034FF7FBFDFE0
(1.745750) can0 34a#50000000000
(1.745900) can0 350#400000C00
(1.747350) can0 7e8#80441100000AAAAAA
(1.748050) can0 f1#6340000400000
(1.749600) can0 189#84FFF0FFF3000FFF0
(1.749850) can0 19d#840003FFF000000FF
(1.750100) can0 aa#82A8B2F570250A800
(1.750350) can0 c1#80000000000000000
(1.750550) can0 be#6000000000000
(1.750800) can0 c5#80000000000000000
(1.751050) can0 c9#80000002000000800
(1.751300) can0 d1#7C000FFFD00FD00
(1.751400) can0 d3#22A88
(1.751650) can0 12a#830E2705F00001090
(1.751900) can0 18e#800000062A62B062B
(1.752000) can0 1a6#104
(1.752250) can0 1af#800000011000000FF
(1.752450) can0 1e5#85CFFCD3000000294
(1.752700) can0 1ed#801A9000000003329
(1.752950) can0 1e9#80008000EA0010000
(1.753200) can0 135#800080C326614142F
(1.753450) can0 1f5#80F0F002100000300
(1.753700) can0 232#80000010000006000
(1.753950) can0 34c#8007E0001000C0008
(1.754850) can0 1cc#50000000000
(1.755050) can0 362#400000000
(1.755650) can0 137#80F008A510DD8080E
(1.755850) can0 c7#400000000
(1.756050) can0 f9#80000400000000006
(1.758050) can0 f1#6000000400000
(1.760150) can0 c1#81000000010000000
(1.760400) can0 c5#81000000010000000
(1.760600) can0 139#80200000000000000
(1.760850) can0 d1#700000000000000
(1.761000) can0 185#2000C
(1.761250) can0 1c7#7096EF68F00003F
(1.761450) can0 1e5#85CFFCD50000002B4
(1.762550) can0 aa#82A8B2F570450A700
(1.762750) can0 be#60400000001FF
(1.763000) can0 c9#80000002700000800
(1.763200) can0 160#50000000000
(1.763350) can0 d3#22A88
(1.763550) can0 1a1#700100000625200
(1.763800) can0 18e#800000062A62B062B
(1.763900) can0 1a3#100
(1.764150) can0 1ed#801A9000000003329
(1.764350) can0 1aa#70062A63F62A000
(1.764600) can0 1ba#816A06A062A7BC8AF
(1.764850) can0 1c3#8062A07BC00000000
(1.765000) can0 1ce#4100007FE
(1.765250) can0 1c4#80062C21B00000000
(1.765450) can0 1c5#62F572BF0323D
(1.765700) can0 1e1#7000004000307FD
(1.765850) can0 1df#400000000
(1.766350) can0 1f4#6000000000000
(1.766500) can0 287#3430000
(1.766700) can0 2c3#8062A062A0000CD10
(1.766950) can0 3c1#80765140000000000
(1.767200) can0 3d1#8014C800000000000
(1.767450) can0 3d3#700C900003FFF4C
(1.767650) can0 3e9#80000000000000000
(1.768050) can0 f1#61C0000400000
(1.768250) can0 c7#400000000
(1.768500) can0 f9#80000400000000006
(1.770300) can0 c1#82000000020000000
(1.770550) can0 321#8000054FF7FBFDFE0
(1.770800) can0 c5#82000000020000000
(1.771050) can0 1f1#8800A00000800007A
(1.771300) can0 d1#740007FFF00FF00
(1.771550) can0 1c6#82A6F2FD1008340BA
(1.771800) can0 1e5#85CFFCD70000002D4
(1.772050) can0 1e9#80008000EA0010000
(1.772300) can0 1fc#801380068000040E8
(1.772500) can0 7e8#803411152AAAAAAAA
(1.772750) can0 232#80000010000006000
(1.773000) can0 1f3#3404000
(1.774750) can0 189#88FFF0FFF2FFFFFF0
(1.775000) can0 19d#880003FFE000000FF
(1.775250) can0 aa#82A8B2F570650A600
(1.775350) can0 1a6#104
(1.775550) can0 be#60800000001FE
(1.775800) can0 1af#800000011000000FF
(1.776050) can0 c9#80000002A00000800
(1.776250) can0 1cc#50000000000
(1.776350) can0 d3#22A88
(1.776600) can0 1f5#80F0F002100000300
(1.776850) can0 18e#800000062A62B062B
(1.777000) can0 210#4040001FE
(1.777250) can0 1ed#801A9000000003329
(1.777500) can0 32a#80000000000000000
(1.778050) can0 f1#6280000400000
(1.780200) can0 c1#83000000030000000
(1.780500) can0 c5#83000000030000000
(1.780650) can0 c7#400000000
(1.780900) can0 d0#88000800080008000
(1.781150) can0 f9#80000400000000006
(1.781350) can0 d1#78000BFFE00FE00
(1.781600) can0 3c9#80766000000000000
(1.781750) can0 185#2000B
(1.782000) can0 1c7#7096E369200003F
(1.782250) can0 1e5#85CFFCD1000000274
(1.782450) can0 214#6020021FF241F
(1.783000) can0 451#6000000000000
(1.784950) can0 1ce#4180007FD
(1.785150) can0 234#50000000000
(1.785350) can0 2f9#753000700000007
(1.787550) can0 aa#82A8B2F570050A900
(1.787800) can0 be#60C00000001FD
(1.788050) can0 c9#80000002D00000800
(1.788250) can0 f1#6340204400000
(1.788400) can0 d3#22A88
(1.788600) can0 1a1#700100000625200
(1.788850) can0 18e#800000062A62B062B
(1.788950) can0 1a3#100
(1.789200) can0 1ed#801A9000000003329
(1.789400) can0 1aa#70062A63F62A000
(1.789650) can0 1ba#816A06A062A7BC8AF
(1.789900) can0 1c3#8062A07BC00000000
(1.790150) can0 1c4#82762C21B020007FF
(1.790350) can0 c1#80000000000000000
(1.790550) can0 1c5#62F572BF0323D
(1.790850) can0 c5#80000000000000000
(1.791000) can0 1df#400000000
(1.791250) can0 d1#7C000FFFD00FD00
(1.791450) can0 1e1#7000004000008E0
(1.791700) can0 1e5#85CFFCD3000000294
(1.791900) can0 1f4#6000000000000
(1.792150) can0 1e9#80004000EA0010000
(1.792300) can0 287#3820000
(1.792550) can0 232#80000010000006000
(1.792700) can0 348#5000000001B
(1.793050) can0 1f3#3808000
(1.793250) can0 c7#400000000
(1.793500) can0 f9#80000400000000006
(1.794850) can0 1cc#50000000000
(1.795100) can0 1c6#82A6F2FD100C340B9
(1.795250) can0 1cf#3000005
(1.795500) can0 321#8000074FF7FBFDFE0
(1.795700) can0 34a#50000000000
(1.795850) can0 350#400000C00
(1.796100) can0 451#6000000000000
(1.798050) can0 f1#6000000400000
(1.799650) can0 189#8CFFF0FFF2FFEFFF0
(1.799900) can0 19d#8C0003FFD000000FF
(1.800150) can0 aa#82A8B2F570250A800
(1.800400) can0 c1#81000000010000000
(1.800600) can0 be#6000000000000
(1.800850) can0 c5#81000000010000000
(1.801100) can0 c9#80000002000000800
(1.801350) can0 d1#700000000000000
(1.801450) can0 d3#22A88
(1.801550) can0 185#2000B
(1.801800) can0 18e#800000062A62B062B
(1.801950) can0 1a6#104
(1.802200) can0 1af#800000011000000FF
(1.802400) can0 1c7#7096E769100003F
(1.802650) can0 1ed#801A9000000003329
(1.802850) can0 1e5#85CFFCD50000002B4
(1.803100) can0 1f5#80F0F002100000300
(1.803350) can0 34c#8087A0001000B0004
(1.804950) can0 1ce#400000000
(1.805100) can0 362#400000000
(1.805700) can0 c7#400000000
(1.806150) can0 f9#80000400000000006
(1.808050) can0 f1#61C0000400000
(1.810100) can0 c1#82000000020000000
(1.810400) can0 c5#82000000020000000
(1.810600) can0 451#6000000000000
(1.810850) can0 d1#740007FFF00FF00
(1.811100) can0 1e5#85CFFCD70000002D4
(1.811350) can0 1e9#80004000EA0010000
(1.811600) can0 232#80000010000006000
(1.812500) can0 aa#82A8B2F570450A700
(1.812700) can0 be#60400000001FF
(1.813000) can0 c9#80000002700000800
(1.813200) can0 1a1#700100000625200
(1.813300) can0 d3#22A88
(1.813450) can0 1a3#100
(1.813700) can0 18e#800000062A62B062B
(1.813900) can0 1aa#70062A63F62A000
(1.814150) can0 1ed#801A9000000003329
(1.814350) can0 1ba#816A06A062A7BC8AF
(1.814600) can0 1c3#8062A07BC00000000
(1.814850) can0 1c4#84A62C21B040005FE
(1.815050) can0 1cc#50000000000
(1.815250) can0 1c5#62F572BF0323D
(1.815450) can0 1df#400000000
(1.815900) can0 1f4#6000000000000
(1.816300) can0 287#3C10000
(1.816550) can0 2c3#8062A062A0000CC10
(1.818000) can0 f1#6280000400000
(1.818250) can0 c7#400000000
(1.818500) can0 f9#80000400000000006
(1.820350) can0 c1#83000000030000000
(1.820600) can0 321#8000094FF7FBFDFE0
(1.820850) can0 c5#83000000030000000
(1.821050) can0 1e1#700000400010DDF
(1.821250) can0 d1#78000BFFE00FE00
(1.821400) can0 185#2000B
(1.821650) can0 1c6#82A6F2FD1000340BC
(1.821900) can0 1c7#7096EB69000003F
(1.822150) can0 1e5#85CFFCD1000000274
(1.822400) can0 1fc#8012B0034000080AF
(1.823000) can0 1f3#3C0C000
(1.824700) can0 189#80FFF0FFF3001FFF0
(1.824900) can0 17d#6222442FF0000
(1.825150) can0 aa#82A8B2F570650A600
(1.825400) can0 19d#800000000000000FF
(1.825600) can0 be#60800000001FE
(1.825700) can0 1a6#104
(1.825950) can0 c9#80000002A00000800
(1.826200) can0 1af#800000011000000FF
(1.826350) can0 d3#22A88
(1.826500) can0 1ce#4080007FF
(1.826750) can0 18e#800000062A62B062B
(1.827000) can0 1f5#80F0F002100000300
(1.827250) can0 1ed#801A9000000003329
(1.827400) can0 210#4060001FD
(1.828050) can0 f1#6340000400000
(1.830250) can0 c1#80000000000000000
(1.830450) can0 c5#80000000000000000
(1.830650) can0 c7#400000000
(1.830850) can0 d1#7C000FFFD00FD00
(1.831100) can0 f9#80000400000000006
(1.831350) can0 1e5#85CFFCD3000000294
(1.831550) can0 451#6000000000000
(1.831800) can0 1e9#80000000EA0020000
(1.832050) can0 214#6040041FE482A
(1.832300) can0 232#80000010000006000
(1.834850) can0 1cc#50000000000
(1.835100) can0 182#80000000000000000
(1.835300) can0 2f9#75B000A0000000A
(1.837500) can0 aa#82A8B2F570050A900
(1.837700) can0 be#60C00000001FD
(1.837950) can0 c9#80000002D00000800
(1.838150) can0 f1#6000204400000
(1.838300) can0 d3#22A88
(1.838550) can0 1a1#700100000625200
(1.838800) can0 18e#800000062A62B062B
(1.838850) can0 1a3#100
(1.839100) can0 1ed#801A9000000003329
(1.839300) can0 1aa#70062A63F62A000
(1.839550) can0 1ba#816A06A062A7BC8AF
(1.839800) can0 1c3#8062A07BC00000000
(1.840050) can0 1c4#86D62C21B060003FD
(1.840300) can0 c1#81000000010000000
(1.840500) can0 1c5#62F572BF0323D
(1.840750) can0 c5#81000000010000000
(1.840900) can0 1df#400000000
(1.841150) can0 d1#700000000000000
(1.841350) can0 1f4#6000000000000
(1.841500) can0 185#2000B
(1.841650) can0 287#3000000
(1.841850) can0 1c7#7096EF68F00003F
(1.842100) can0 1e5#85CFFCD50000002B4
(1.842300) can0 348#5000000001B
(1.843150) can0 c7#400000000
(1.843400) can0 f9#80000400000000006
(1.845100) can0 1c6#82A6F2FD1004340BB
(1.845300) can0 1ce#4100007FE
(1.845500) can0 321#80000B4FF7FBFDFE0
(1.845750) can0 34a#50000000000
(1.845900) can0 350#400000C00
(1.848050) can0 f1#61C0000400000
(1.849550) can0 189#84FFF0FFF3000FFF0
(1.849800) can0 19d#840003FFF000000FF
(1.850050) can0 aa#82A8B2F570250A800
(1.850300) can0 c1#82000000020000000
(1.850500) can0 be#6000000000000
(1.850750) can0 c5#82000000020000000
(1.851000) can0 c9#80000002000000800
(1.851250) can0 d1#740007FFF00FF00
(1.851350) can0 d3#22A88
(1.851600) can0 12a#830E2705F000010A0
(1.851850) can0 18e#800000062A62B062B
(1.851950) can0 1a6#104
(1.852150) can0 1af#800000011000000FF
(1.852400) can0 1e5#85CFFCD70000002D4
(1.852650) can0 1ed#801A9000000003329
(1.852900) can0 1e9#80FFC000EA0020000
(1.853150) can0 1f5#80F0F002100000300
(1.853400) can0 135#800080C326614142F
(1.853650) can0 232#80000010000006000
(1.853900) can0 34c#811830002000B0FFC
(1.854850) can0 1cc#50000000000
(1.855050) can0 362#400000000
(1.855600) can0 137#80F008A510DD8080E
(1.855800) can0 c7#400000000
(1.856050) can0 f9#80000400000000006
(1.858050) can0 f1#6280000400000
(1.860150) can0 c1#83000000030000000
(1.860400) can0 c5#83000000030000000
(1.860650) can0 139#80200000000000000
(1.860850) can0 d1#78000BFFE00FE00
(1.861000) can0 185#2000A
(1.861250) can0 1c7#7096E369200003F
(1.861500) can0 1e5#85CFFCD1000000274
(1.862500) can0 aa#82A8B2F570450A700
(1.862750) can0 be#60400000001FF
(1.863000) can0 c9#80000002700000800
(1.863150) can0 160#50000000000
(1.863300) can0 d3#22A88
(1.863550) can0 1a1#700100000625200
(1.863750) can0 18e#800000062A62B062B
(1.863850) can0 1a3#100
(1.864100) can0 1ed#801A9000000003329
(1.864300) can0 1aa#70062A63F62A000
(1.864550) can0 1ba#816A06A062A7BC8AF
(1.864800) can0 1c3#8062A07BC00000000
(1.865000) can0 1ce#4180007FD
(1.865250) can0 1c4#80062C21B00000000
(1.865500) can0 1c5#62F572BF0323D
(1.865700) can0 1e1#70000040002020E
(1.865900) can0 1df#400000000
(1.866350) can0 1f4#6000000000000
(1.866450) can0 287#3430000
(1.866700) can0 2c3#8062A062A0000CD10
(1.866950) can0 3c1#80765140000000000
(1.867200) can0 3d1#8014C800000000000
(1.867450) can0 3d3#700C900005FFE4C
(1.867700) can0 3e9#80000000000000000
(1.868050) can0 f1#6340000400000
(1.868250) can0 c7#400000000
(1.868550) can0 f9#80000400000000006
(1.870350) can0 c1#80000000000000000
(1.870550) can0 321#80000D4FF7FBFDFE0
(1.870800) can0 c5#80000000000000000
(1.871050) can0 1f1#8800A00000800007A
(1.871300) can0 d1#7C000FFFD00FD00
(1.871550) can0 1c6#82A6F2FD1008340BA
(1.871800) can0 1e5#85CFFCD3000000294
(1.872050) can0 1e9#80FFC000EA0020000
(1.872300) can0 1fc#8011EFFCC0000C241
(1.872550) can0 7e8#803410A00AAAAAAAA
(1.872750) can0 232#80000010000006000
(1.873000) can0 1f3#3000000
(1.874750) can0 189#88FFF0FFF2FFFFFF0
(1.875000) can0 19d#880003FFE000000FF
(1.875250) can0 aa#82A8B2F570650A600
(1.875350) can0 1a6#104
(1.875600) can0 be#60800000001FE
(1.875800) can0 1af#800000011000000FF
(1.876050) can0 c9#80000002A00000800
(1.876250) can0 1cc#50000000000
(1.876350) can0 d3#22A88
(1.876600) can0 1f5#80F0F002100000300
(1.876850) can0 18e#800000062A62B062B
(1.877050) can0 210#400000000
(1.877250) can0 1ed#801A9000000003329
(1.877550) can0 32a#80000000000000000
(1.878100) can0 f1#6000100400000
(1.880200) can0 c1#81000000010000000
(1.880500) can0 c5#81000000010000000
(1.880650) can0 c7#400000000
(1.880900) can0 d0#88000800080008000
(1.881150) can0 f9#80000400000000006
(1.881400) can0 d1#700000000000000
(1.881600) can0 1e1#7000004000307FD
(1.881750) can0 185#2000B
(1.881950) can0 1c7#7096E769100003F
(1.882200) can0 1e5#85CFFCD50000002B4
(1.882400) can0 214#6060061FD6C35
(1.883000) can0 1f3#3404000
(1.884900) can0 1ce#400000000
(1.885100) can0 234#50000000000
(1.885350) can0 2f9#763000D0000000D
(1.885600) can0 3c9#80766000000000000
(1.887650) can0 aa#82A8B2F570050A900
(1.887850) can0 be#60C01000001FC
(1.888100) can0 c9#80000002D00000800
(1.888300) can0 f1#61C0404400000
(1.888450) can0 d3#22A88
(1.888650) can0 1a1#700100000625200
(1.888900) can0 18e#800000062A62B062B
(1.889000) can0 1a3#100
(1.889250) can0 1ed#801A9000000003329
(1.889450) can0 1aa#70062A63F62A000
(1.889700) can0 1ba#816A06A062A7BC8AF
(1.889900) can0 1c3#8062A07BC00000000
(1.890200) can0 c1#82000000020000000
(1.890400) can0 1c4#82762C21B020007FF
(1.890650) can0 c5#82000000020000000
(1.890850) can0 1c5#62F572BF0323D
(1.891100) can0 d1#740007FFF00FF00
(1.891250) can0 1df#400000000
(1.891500) can0 1e5#85CFFCD70000002D4
(1.891700) can0 1f4#6000000000000
(1.891950) can0 1e9#80FFC000EA0030000
(1.892100) can0 287#3820000
(1.892350) can0 232#80000010000006000
(1.892600) can0 451#6000000000000
(1.892750) can0 348#5000000001B
(1.893000) can0 7e8#803410B66AAAAAAAA
(1.893200) can0 c7#400000000
(1.893450) can0 f9#80000400000000006
(1.894800) can0 1cc#50000000000
(1.895000) can0 1cf#3000005
(1.895250) can0 1c6#82A6F2FD100C340B9
(1.895500) can0 321#80000F4FF7FBFDFE0
(1.895700) can0 34a#50000000000
(1.895850) can0 350#400000C00
(1.898050) can0 f1#6280200400000
(1.899600) can0 189#8CFFF0FFF2FFEFFF0
(1.899850) can0 19d#8C0003FFD000000FF
(1.900100) can0 aa#82A8B2F570250A800
(1.900350) can0 c1#83000000030000000
(1.900550) can0 be#60001000001FF
(1.900800) can0 c5#83000000030000000
(1.901050) can0 c9#80000002000000800
(1.901300) can0 d1#78000BFFE00FE00
(1.901400) can0 d3#22A88
(1.901500) can0 185#2000B
(1.901750) can0 18e#800000062A62B062B
(1.901900) can0 1a6#104
(1.902150) can0 1af#800000011000000FF
(1.902350) can0 1c7#7096EB69000003F
(1.902600) can0 1ed#801A9000000003329
(1.902850) can0 1e5#85CFFCD1000000274
(1.903100) can0 1f5#80F0F002100000300
(1.903300) can0 34c#819850003000B0FFC
(1.903550) can0 3f1#800FF5A0837FF0A89
(1.904950) can0 1ce#4080007FF
(1.905150) can0 362#400000000
(1.905700) can0 c7#400000000
(1.905900) can0 451#6000000000000
(1.906150) can0 f9#80000400000000006
(1.908050) can0 f1#6340100400000
(1.909900) can0 7e8#804410C0000AAAAAA
(1.910150) can0 c1#80000000000000000
(1.910450) can0 c5#80000000000000000
(1.910650) can0 1e1#7000004000008E0
(1.910900) can0 d1#7C000FFFD00FD00
(1.911150) can0 1e5#85CFFCD3000000294
(1.911400) can0 1e9#80FFC000EA0030000
(1.911600) can0 232#80000010000006000
(1.912550) can0 aa#82A8B2F570450A700
(1.912750) can0 be#60401000001FE
(1.913000) can0 c9#80000002700000800
(1.913250) can0 121#80000000000000000
(1.913400) can0 d3#22A88
(1.913600) can0 1a1#700100000625200
(1.913850) can0 18e#800000062A62B062B
(1.913950) can0 1a3#100
(1.914200) can0 1ed#801A9000000003329
(1.914400) can0 1aa#70062A63F62A000
(1.914550) can0 1f3#3808000
(1.914800) can0 1ba#816A06A062A7BC8AF
(1.915000) can0 1cc#50000000000
(1.915200) can0 1c3#8062A07BC00000000
(1.915550) can0 1c4#84A62C21B040005FE
(1.915700) can0 1c5#62F572BF0323D
(1.915900) can0 1df#400000000
(1.916100) can0 1f4#6000000000000
(1.916250) can0 287#3C10000
(1.916500) can0 2c3#8062A062A0000CD10
(1.916750) can0 3f9#8000000005A00B72A
(1.916850) can0 3fb#20000
(1.917100) can0 3fc#80800508A89208A89
(1.918050) can0 f1#6000100400000
(1.918250) can0 c7#400000000
(1.918500) can0 f9#80000400000000006
(1.920350) can0 c1#81000000010000000
(1.920600) can0 321#8000014FF7FBFDFE0
(1.920850) can0 c5#81000000010000000
(1.921000) can0 451#6000000000000
(1.921250) can0 d1#700000000000000
(1.921400) can0 185#2000B
(1.921650) can0 1c6#82A6F2FD1000340BC
(1.921900) can0 1c7#7096EF68F00003F
(1.922100) can0 1e5#85CFFCD50000002B4
(1.922350) can0 1fc#8012BFFCC00000236
(1.924700) can0 189#80FFF0FFF3001FF84
(1.924900) can0 17d#6222442FF0000
(1.925150) can0 aa#82A8B2F570650A600
(1.925400) can0 19d#800000000000000FF
(1.925600) can0 be#60801000001FD
(1.925700) can0 1a6#104
(1.925950) can0 c9#80000002A00000800
(1.926200) can0 1af#800000011000000FF
(1.926350) can0 d3#22A88
(1.926500) can0 1ce#4100007FE
(1.926750) can0 18e#800000062A62B062B
(1.926950) can0 1f5#80F0F002100000300
(1.927200) can0 1ed#801A9000000003329
(1.927400) can0 210#4020001FF
(1.928050) can0 f1#61C0100400000
(1.930250) can0 c1#82000000020000000
(1.930500) can0 c5#82000000020000000
(1.930650) can0 c7#400000000
(1.930900) can0 d1#740007FFF00FF00
(1.931100) can0 f9#80000400000000006
(1.931350) can0 1e5#85CFFCE70010002D6
(1.931600) can0 451#6000000000000
(1.931800) can0 1e9#80FFC000EA0030000
(1.932050) can0 214#6000000000000
(1.932300) can0 232#80000010000006000
(1.934800) can0 1cc#50000000000
(1.935050) can0 182#80000000000000000
(1.935250) can0 2f9#76B000000000000
(1.937500) can0 aa#82A8B2F570050A900
(1.937700) can0 be#60C01000001FC
(1.937950) can0 c9#80000002D00000800
(1.938150) can0 f1#6280404400000
(1.938300) can0 d3#22A88
(1.938550) can0 1a1#700100000625200
(1.938750) can0 18e#800000062A62B062B
(1.938850) can0 1a3#100
(1.939100) can0 1ed#801A9000000003329
(1.939350) can0 1aa#70062A63F62A000
(1.939600) can0 1ba#816A06A062A7BC8AF
(1.939800) can0 1c3#8062A07BC00000000
(1.940050) can0 1c4#86D62C21B060003FD
(1.940300) can0 c1#83000000030000000
(1.940500) can0 1c5#62F572BF0323D
(1.940750) can0 c5#83000000030000000
(1.940900) can0 1df#400000000
(1.941150) can0 d1#78000BFFE00FE00
(1.941400) can0 1e1#700000400010DDF
(1.941500) can0 185#2000B
(1.941700) can0 1f4#6000000000000
(1.941950) can0 1c7#7096E369200003F
(1.942100) can0 287#3000000
(1.942300) can0 1e5#85CFFCD1000000274
(1.942500) can0 348#5000000001B
(1.943100) can0 1f3#3C0C000
(1.943250) can0 c7#400000000
(1.943550) can0 f9#80000400000000006
(1.945150) can0 1c6#82A6F2FD1004340BB
(1.945300) can0 1ce#4180007FD
(1.945550) can0 321#8000034FF7FBFDFE0
(1.945750) can0 34a#50000000000
(1.945900) can0 350#400000C00
(1.947400) can0 7e8#80441100000AAAAAA
(1.948100) can0 f1#6340100400000
(1.949600) can0 189#84FFF0FFF3000FFF0
(1.949850) can0 19d#840003FFF000000FF
(1.950100) can0 aa#82A8B2F570250A800
(1.950350) can0 c1#80000000000000000
(1.950550) can0 be#60001000001FF
(1.950850) can0 c5#80000000000000000
(1.951100) can0 c9#80000002000000800
(1.951300) can0 d1#7C000FFFD00FD00
(1.951400) can0 d3#22A88
(1.951650) can0 12a#830E2705F000010B0
(1.951900) can0 18e#800000062A62B062B
(1.952000) can0 1a6#104
(1.952250) can0 1af#800000011000000FF
(1.952500) can0 1e5#85CFFCD3000000294
(1.952750) can0 1ed#801A9000000003329
(1.952950) can0 1e9#80FFC000EA0010000
(1.953200) can0 135#800080C326614142F
(1.953450) can0 1f5#80F0F002100000300
(1.953700) can0 232#80000010000006000
(1.953950) can0 34c#801800001000B0FFC
(1.954800) can0 1cc#50000000000
(1.955050) can0 362#400000000
(1.955600) can0 c7#400000000
(1.955850) can0 f9#80000400000000006
(1.956100) can0 137#80F008A510DD8080E
(1.958100) can0 f1#6000100400000
(1.960150) can0 c1#81000000010000000
(1.960400) can0 c5#81000000010000000
(1.960650) can0 139#80200000000000000
(1.960900) can0 d1#700000000000000
(1.961000) can0 185#2000A
(1.961250) can0 1c7#7096E769100003F
(1.961500) can0 1e5#85CFFCD50000002B4
(1.962500) can0 aa#82A8B2F570450A700
(1.962750) can0 be#60401000001FE
(1.963000) can0 c9#80000002700000800
(1.963150) can0 160#50000000000
(1.963300) can0 d3#22A88
(1.963550) can0 1a1#700100000625200
(1.963800) can0 18e#800000062A62B062B
(1.963900) can0 1a3#100
(1.964100) can0 1ed#801A9000000003329
(1.964350) can0 1aa#70062A63F62A000
(1.964550) can0 1ba#816A06A062A7BC8AF
(1.964800) can0 1c3#8062A07BC00000000
(1.965000) can0 1ce#400000000
(1.965250) can0 1c4#80062C21B00000000
(1.965500) can0 1c5#62F572BF0323D
(1.965900) can0 1df#400000000
(1.966150) can0 1f1#8800A00000800007A
(1.966350) can0 1f4#6000000000000
(1.966500) can0 287#3430000
(1.966750) can0 2c3#8062A062A0000CD10
(1.967000) can0 3c1#80765140000000000
(1.967200) can0 3d1#8014C800000000000
(1.967450) can0 3d3#700C900007FFD4C
(1.967700) can0 3e9#80000000000000000
(1.968050) can0 f1#61C0100400000
(1.968250) can0 c7#400000000
(1.968500) can0 f9#80000400000000006
(1.970350) can0 c1#82000000020000000
(1.970600) can0 321#8000054FF7FBFDFE0
(1.970850) can0 c5#82000000020000000
(1.971100) can0 1e1#70000040002020E
(1.971300) can0 d1#740007FFF00FF00
(1.971550) can0 1c6#82A6F2FD1008340BA
(1.971800) can0 1e5#85CFFCE70000002D5
(1.972050) can0 1e9#80FFC000EA0010000
(1.972300) can0 1fc#80104FFCC00004217
(1.972550) can0 7e8#803411152AAAAAAAA
(1.972800) can0 232#80000010000006000
(1.973000) can0 1f3#3000000
(1.974750) can0 189#88FFF0FFF2FFFFF01
(1.975000) can0 19d#880003FFE000000FF
(1.975200) can0 aa#82A8B2F570650A600
(1.975350) can0 1a6#104
(1.975550) can0 be#60801000001FD
(1.975800) can0 1af#800000011000000FF
(1.976050) can0 c9#80000002A00000800
(1.976250) can0 1cc#50000000000
(1.976350) can0 d3#22A88
(1.976600) can0 1f5#80F0F002100000300
(1.976850) can0 18e#800000062A62B062B
(1.977000) can0 210#4040001FE
(1.977250) can0 1ed#801A9000000003329
(1.977500) can0 32a#80000000000000000
(1.978050) can0 f1#6280100400000
(1.980200) can0 c1#83000000030000000
(1.980500) can0 c5#83000000030000000
(1.980650) can0 c7#400000000
(1.980900) can0 d0#88000800080008000
(1.981150) can0 f9#80000400000000006
(1.981400) can0 d1#78000BFFE00FE00
(1.981650) can0 3c9#80766000000000000
(1.981750) can0 185#20009
(1.982000) can0 1c7#7096EB69000003F
(1.982250) can0 1e5#85CFFCE1000000275
(1.982450) can0 214#6020021FF241F
(1.983050) can0 451#6000000000000
(1.984900) can0 1ce#4080007FF
(1.985150) can0 234#50000000000
(1.985400) can0 2f9#773000700000007
(1.987600) can0 aa#82A8B2F570050A900
(1.987800) can0 be#60C00000001FD
(1.988050) can0 c9#80000002D00000800
(1.988250) can0 f1#6340303400000
(1.988400) can0 d3#22A88
(1.988600) can0 1a1#700100000625200
(1.988850) can0 18e#800000062A62B062B
(1.988950) can0 1a3#100
(1.989200) can0 1ed#801A9000000003329
(1.989400) can0 1aa#70062A63F62A000
(1.989650) can0 1ba#816A06A062A7BC8AF
(1.989900) can0 1c3#8062A07BC00000000
(1.990150) can0 1c4#82762C21B020007FF
(1.990400) can0 c1#80000000000000000
(1.990550) can0 1c5#62F572BF0323D
(1.990850) can0 c5#80000000000000000
(1.991000) can0 1df#400000000
(1.991250) can0 d1#7C000FFFD00FD00
(1.991450) can0 1f4#6000000000000
(1.991650) can0 1e5#85CFFCE3000000295
(1.991800) can0 287#3820000
(1.992050) can0 1e9#80000000EA0020000
(1.992300) can0 451#6000000000000
(1.992500) can0 232#80000010000006000
(1.992750) can0 348#5000000001B
(1.993250) can0 c7#400000000
(1.993500) can0 f9#80000400000000006
(1.994800) can0 1cc#50000000000
(1.995000) can0 1cf#3000005
(1.995250) can0 1c6#82A6F2FD100C340B9
(1.995450) can0 321#8000074FF7FBFDFE0
(1.995650) can0 34a#50000000000
(1.995800) can0 350#400000C00
(1.998050) can0 f1#6000000400000
(1.999600) can0 189#8CFFF0FFF2FFEFFF0
(1.999900) can0 19d#8C0003FFD000000FF
(2.000150) can0 aa#82A8B2F570250A800
(2.000400) can0 c1#81000000010000000
(2.000600) can0 be#6000000000000
(2.000850) can0 c5#81000000010000000
(2.001100) can0 c9#80000002000000800
(2.001350) can0 d1#700000000000000
(2.001450) can0 d3#22A88
(2.001600) can0 185#2000A
(2.001850) can0 18e#800000062A62B062B
(2.001950) can0 1a6#104
(2.002200) can0 1af#800000011000000FF
(2.002400) can0 1c7#7096EF68F00003F
(2.002600) can0 1e1#7000004000307FD
(2.002850) can0 1e5#85CFFCE50000002B5
(2.003100) can0 1ed#801A9000000003329
(2.003250) can0 1f3#3404000
(2.003500) can0 1f5#80F0F002100000300
(2.003750) can0 34c#808760002000A0000
(2.004950) can0 1ce#4100007FE
(2.005150) can0 362#400000000
(2.005700) can0 c7#400000000
(2.006000) can0 f9#80000400000000006
(2.008050) can0 f1#61C0000400000
(2.010150) can0 c1#82000000020000000
(2.010450) can0 c5#82000000020000000
(2.010650) can0 451#6000000000000
(2.010850) can0 d1#740007FFF00FF00
(2.011100) can0 1e5#85CFFCE70000002D5
(2.011400) can0 1e9#80004000EA0010000
(2.011650) can0 232#80000010000006000
(2.012600) can0 aa#82A8B2F570450A700
(2.012800) can0 be#60400000001FF
(2.013050) can0 c9#80000002700000800
(2.013300) can0 1a1#700100000625200
(2.013400) can0 d3#22A88
(2.013500) can0 1a3#100
(2.013750) can0 18e#800000062A62B062B
(2.014000) can0 1aa#70062A63F62A000
(2.014200) can0 1ed#801A9000000003329
(2.014450) can0 1ba#816A06A062A7BC8AF
(2.014700) can0 1c3#8062A07BC00000000
(2.014900) can0 1cc#50000000000
(2.015150) can0 1c4#84A62C21B040005FE
(2.015300) can0 1c5#62F572BF0323D
(2.015700) can0 1df#400000000
(2.016150) can0 1f4#6000000000000
(2.016350) can0 287#3C10000
(2.016550) can0 2c3#8062A062A0000CD10
(2.018050) can0 f1#6280000400000
(2.018300) can0 c7#400000000
(2.018500) can0 f9#80000400000000006
(2.020350) can0 c1#83000000030000000
(2.020600) can0 321#8000094FF7FBFDFE0
(2.020850) can0 c5#83000000030000000
(2.021100) can0 d1#78000BFFE00FE00
(2.021250) can0 185#2000A
(2.021500) can0 1c6#82A6F2FD1000340BC
(2.021700) can0 1c7#7096E369200003F
(2.021950) can0 1e5#85CFFCE1000000275
(2.022200) can0 1fc#80111003400008095
(2.024700) can0 189#80FFF0FFF3001FFF0
(2.024950) can0 17d#6222442FF0000
(2.025150) can0 aa#82A8B2F570650A600
(2.025400) can0 19d#800000000000000FF
(2.025600) can0 be#60800000001FE
(2.025750) can0 1a6#104
(2.025950) can0 c9#80000002A00000800
(2.026200) can0 1af#800000011000000FF
(2.026350) can0 d3#22A88
(2.026500) can0 1ce#4180007FD
(2.026750) can0 18e#800000062A62B062B
(2.027000) can0 1f5#80F0F002100000300
(2.027200) can0 1ed#801A9000000003329
(2.027400) can0 210#4060001FD
(2.028100) can0 f1#6340000400000
(2.030250) can0 c1#80000000000000000
(2.030500) can0 c5#80000000000000000
(2.030700) can0 c7#400000000
(2.030900) can0 d1#7C000FFFD00FD00
(2.031150) can0 f9#80000400000000006
(2.031400) can0 1e1#7000004000008E0
(2.031600) can0 1e5#85CFFCE3000000295
(2.031850) can0 1e9#80004000EA0010000
(2.032050) can0 214#6040041FE482A
(2.032350) can0 232#80000010000006000
(2.033000) can0 1f3#3808000
(2.034800) can0 1cc#50000000000
(2.035050) can0 182#80000000000000000
(2.035300) can0 2f9#77B000A0000000A
(2.035600) can0 451#6000000000000
(2.037550) can0 aa#82A8B2F570050A900
(2.037800) can0 be#60C00000001FD
(2.038000) can0 c9#80000002D00000800
(2.038250) can0 f1#6000204400000
(2.038350) can0 d3#22A88
(2.038550) can0 1a1#700100000625200
(2.038800) can0 18e#800000062A62B062B
(2.038950) can0 1a3#100
(2.039150) can0 1ed#801A9000000003329
(2.039400) can0 1aa#70062A63F62A000
(2.039600) can0 1ba#816A06A062A7BC8AF
(2.039850) can0 1c3#8062A07BC00000000
(2.040100) can0 1c4#86D62C21B060003FD
(2.040350) can0 c1#81000000010000000
(2.040550) can0 1c5#62F572BF0323D
(2.040800) can0 c5#81000000010000000
(2.040950) can0 1df#400000000
(2.041200) can0 d1#700000000000000
(2.041400) can0 1f4#6000000000000
(2.041550) can0 185#2000A
(2.041700) can0 287#3000000
(2.041900) can0 1c7#7096E769100003F
(2.042200) can0 1e5#85CFFCE50000002B5
(2.042350) can0 348#5000000001B
(2.043200) can0 c7#400000000
(2.043450) can0 f9#80000400000000006
(2.045150) can0 1c6#82A6F2FD1004340BB
(2.045300) can0 1ce#400000000
(2.045550) can0 321#80000B4FF7FBFDFE0
(2.045800) can0 34a#50000000000
(2.045950) can0 350#400000C00
(2.048050) can0 f1#61C0000400000
(2.049600) can0 189#84FFF0FFF3000FFF0
(2.049850) can0 19d#840003FFF000000FF
(2.050100) can0 aa#82A8B2F570250A800
(2.050300) can0 c1#82000000020000000
(2.050550) can0 be#6000000000000
(2.050800) can0 c5#82000000020000000
(2.051050) can0 c9#80000002000000800
(2.051250) can0 d1#740007FFF00FF00
(2.051400) can0 d3#22A88
(2.051650) can0 12a#830E2705F00001080
(2.051900) can0 18e#800000062A62B062B
(2.052000) can0 1a6#104
(2.052250) can0 1af#800000011000000FF
(2.052450) can0 1e5#85CFFCE70000002D5
(2.052700) can0 1ed#801A9000000003329
(2.052950) can0 1e9#80004000EA0010000
(2.053200) can0 135#800080C326614142F
(2.053450) can0 1f5#80F0F002100000300
(2.053700) can0 232#80000010000006000
(2.053900) can0 34c#8107A0001000A0004
(2.054800) can0 1cc#50000000000
(2.055100) can0 362#400000000
(2.055650) can0 137#80F008A510DD8080E
(2.055800) can0 c7#400000000
(2.056100) can0 f9#80000400000000006
(2.058050) can0 f1#6280000400000
(2.060200) can0 c1#83000000030000000
(2.060400) can0 c5#83000000030000000
(2.060650) can0 139#80200000000000000
(2.060900) can0 d1#78000BFFE00FE00
(2.061050) can0 185#2000A
(2.061300) can0 1c7#7096EB69000003F
(2.061500) can0 1e5#85CFFCE1000000275
(2.062550) can0 aa#82A8B2F570450A700
(2.062750) can0 be#60400000001FF
(2.063000) can0 c9#80000002700000800
(2.063200) can0 160#50000000000
(2.063300) can0 d3#22A88
(2.063550) can0 1a1#700100000625200
(2.063800) can0 18e#800000062A62B062B
(2.063900) can0 1a3#100
(2.064150) can0 1ed#801A9000000003329
(2.064350) can0 1aa#70062A63F62A000
(2.064600) can0 1ba#816A06A062A7BC8AF
(2.064850) can0 1c3#8062A07BC00000000
(2.065000) can0 1ce#4080007FF
(2.065250) can0 1c4#80062C21B00000000
(2.065500) can0 1c5#62F572BF0323D
(2.065900) can0 1df#400000000
(2.066150) can0 1e1#700000400010DDF
(2.066350) can0 1f4#6000000000000
(2.066500) can0 287#3430000
(2.066750) can0 2c3#8062A062A0000CC10
(2.067000) can0 3c1#80765140000000000
(2.067250) can0 3d1#8014C800000000000
(2.067450) can0 3d3#700C9000000004C
(2.067700) can0 3e9#80000000000000000
(2.068100) can0 f1#6340000400000
(2.068250) can0 c7#400000000
(2.068500) can0 f9#80000400000000006
(2.070350) can0 c1#80000000000000000
(2.070600) can0 321#80000D4FF7FBFDFE0
(2.070850) can0 c5#80000000000000000
(2.071100) can0 1f1#8800A00000800007A
(2.071350) can0 d1#7C000FFFD00FD00
(2.071550) can0 1c6#82A6F2FD1008340BA
(2.071800) can0 1e5#85CFFCE3000000295
(2.072100) can0 1e9#80008000EA0010000
(2.072350) can0 1fc#8010400680000C0C4
(2.072550) can0 7e8#803410A00AAAAAAAA
(2.072800) can0 232#80000010000006000
(2.073050) can0 1f3#3C0C000
(2.074750) can0 189#88FFF0FFF2FFFFFF0
(2.075000) can0 19d#880003FFE000000FF
(2.075250) can0 aa#82A8B2F570650A600
(2.075350) can0 1a6#104
(2.075550) can0 be#60800000001FE
(2.075800) can0 1af#800000011000000FF
(2.076050) can0 c9#80000002A00000800
(2.076250) can0 1cc#50000000000
(2.076400) can0 d3#22A88
(2.076650) can0 1f5#80F0F002100000300
(2.076850) can0 18e#800000062A62B062B
(2.077050) can0 210#400000000
(2.077250) can0 1ed#801A9000000003329
(2.077500) can0 32a#80000000000000000
(2.078100) can0 f1#6000000400000
(2.080250) can0 c1#81000000010000000
(2.080500) can0 c5#81000000010000000
(2.080700) can0 c7#400000000
(2.080950) can0 d0#88000800080008000
(2.081200) can0 f9#80000400000000006
(2.081400) can0 d1#700000000000000
(2.081650) can0 3c9#80766000000000000
(2.081800) can0 185#2000A
(2.082050) can0 1c7#7096EF68F00003F
(2.082300) can0 1e5#85CFFD050010002B8
(2.082450) can0 214#6060061FD6C35
(2.083050) can0 451#6000000000000
(2.084950) can0 1ce#4100007FE
(2.085150) can0 234#50000000000
(2.085400) can0 2f9#783000D0000000D
(2.087600) can0 aa#82A8B2F570050A900
(2.087850) can0 be#60C00000001FD
(2.088100) can0 c9#80000002D00000800
(2.088300) can0 f1#61C0203400000
(2.088450) can0 d3#22A88
(2.088650) can0 1a1#700100000625200
(2.088900) can0 18e#800000062A62B062B
(2.089000) can0 1a3#100
(2.089250) can0 1ed#801A9000000003329
(2.089450) can0 1aa#70062A63F62A000
(2.089700) can0 1ba#816A06A062A7BC8AF
(2.089950) can0 1c3#8062A07BC00000000
(2.090200) can0 1c4#82762C21B020007FF
(2.090400) can0 c1#82000000020000000
(2.090600) can0 1c5#62F572BF0323D
(2.090850) can0 c5#82000000020000000
(2.091050) can0 1df#400000000
(2.091300) can0 d1#740007FFF00FF00
(2.091500) can0 1e1#70000040002020E
(2.091750) can0 1e5#85CFFD070010002D8
(2.091950) can0 1f4#6000000000000
(2.092200) can0 1e9#80008000EA0010000
(2.092350) can0 287#3820000
(2.092600) can0 232#80000010000006000
(2.092800) can0 7e8#803410B66AAAAAAAA
(2.093000) can0 348#5000000001B
(2.093150) can0 1f3#3000000
(2.093300) can0 c7#400000000
(2.093600) can0 f9#80000400000000006
(2.094800) can0 1cc#50000000000
(2.095000) can0 1cf#3000005
(2.095200) can0 1c6#82A6F2FD100C340B9
(2.095450) can0 321#80000F4FF7FBFDFE0
(2.095650) can0 34a#50000000000
(2.095850) can0 350#400000C00
(2.096050) can0 451#6000000000000
(2.098100) can0 f1#6280000400000
(2.099650) can0 189#8CFFF0FFF2FFEFFF0
(2.099900) can0 19d#8C0003FFD000000FF
(2.100150) can0 aa#82A8B2F570250A800
(2.100400) can0 c1#83000000030000000
(2.100600) can0 be#6000000000000
(2.100850) can0 c5#83000000030000000
(2.101100) can0 c9#80000002000000800
(2.101350) can0 d1#78000BFFE00FE00
(2.101450) can0 d3#22A88
(2.101600) can0 185#20009
(2.101850) can0 18e#800000062A62B062B
(2.101950) can0 1a6#104
(2.102200) can0 1af#800000011000000FF
(2.102400) can0 1c7#7096E369200003F
(2.102650) can0 1ed#801A9000000003329
(2.102850) can0 1e5#85CFFD2100200027B
(2.103100) can0 1f5#80F0F002100000300
(2.103400) can0 34c#8187E000100090008
(2.105000) can0 1ce#4180007FD
(2.105150) can0 362#400000000
(2.105750) can0 c7#400000000
(2.106000) can0 f9#80000400000000006
(2.108100) can0 f1#6340000400000
(2.109900) can0 7e8#804410C0000AAAAAA
(2.110150) can0 c1#80000000000000000
(2.110450) can0 c5#80000000000000000
(2.110650) can0 451#6000000000000
(2.110850) can0 d1#7C000FFFD00FD00
(2.111100) can0 1e5#85CFFD2300200029B
(2.111400) can0 1e9#80008000EA0010000
(2.111650) can0 232#80000010000006000
(2.112600) can0 aa#82A8B2F570450A700
(2.112800) can0 be#60400000001FF
(2.113050) can0 c9#80000002700000800
(2.113250) can0 1a1#700100000625200
(2.113350) can0 d3#22A88
(2.113500) can0 1a3#100
(2.113750) can0 18e#800000062A62B062B
(2.113950) can0 1aa#70062A63F62A000
(2.114200) can0 1ed#801A9000000003329
(2.114450) can0 1ba#816A06A062A7BC8AF
(2.114650) can0 1c3#8062A07BC00000000
(2.114850) can0 1cc#50000000000
(2.115100) can0 1c4#84A62C21B040005FE
(2.115300) can0 1c5#62F572BF0323D
(2.115500) can0 1df#400000000
(2.115700) can0 1f4#6000000000000
(2.115900) can0 287#3C10000
(2.116100) can0 2c3#8062A062A0000CC10
(2.118050) can0 f1#6000000400000
(2.118300) can0 c7#400000000
(2.118550) can0 f9#80000400000000006
(2.120350) can0 c1#81000000010000000
(2.120600) can0 321#8000014FF7FBFDFE0
(2.120850) can0 c5#81000000010000000
(2.121100) can0 1e1#7000004000307FD
(2.121300) can0 d1#700000000000000
(2.121450) can0 185#20009
(2.121700) can0 1c6#82A6F2FD1000340BC
(2.121900) can0 1c7#7096E769100003F
(2.122150) can0 1e5#85CFFD350030002BD
(2.122400) can0 1fc#800EA006800000191
(2.123050) can0 1f3#3404000
(2.124750) can0 189#80FFF0FFF3001FFF0
(2.124900) can0 17d#6222442FF0000
(2.125150) can0 aa#82A8B2F570650A600
(2.125400) can0 19d#800000000000000FF
(2.125600) can0 be#60800000001FE
(2.125700) can0 1a6#104
(2.126000) can0 c9#80000002A00000800
(2.126200) can0 1af#800000011000000FF
(2.126350) can0 d3#22A88
(2.126500) can0 1ce#400000000
(2.126750) can0 18e#800000062A62B062B
(2.127000) can0 1f5#80F0F002100000300
(2.127250) can0 1ed#801A9000000003329
(2.127400) can0 210#4020001FF
(2.128100) can0 f1#61C0000400000
(2.130250) can0 c1#82000000020000000
(2.130500) can0 c5#82000000020000000
(2.130700) can0 c7#400000000
(2.130900) can0 d1#740007FFF00FF00
(2.131150) can0 f9#80000400000000006
(2.131400) can0 1e5#85CFFD370030002DD
(2.131600) can0 451#6000000000000
(2.131850) can0 1e9#80008000EA0010000
(2.132100) can0 214#6000000000000
(2.132300) can0 232#80000010000006000
(2.134750) can0 1cc#50000000000
(2.135000) can0 182#80000000000000000
(2.135250) can0 2f9#78B000000000000
(2.137600) can0 aa#82A8B2F570050A900
(2.137800) can0 be#60C00000001FD
(2.138050) can0 c9#80000002D00000800
(2.138250) can0 f1#6280204400000
(2.138400) can0 d3#22A88
(2.138600) can0 1a1#700100000625200
(2.138850) can0 18e#800000062A62B062B
(2.138950) can0 1a3#100
(2.139200) can0 1ed#801A9000000003329
(2.139400) can0 1aa#70062A63F62A000
(2.139650) can0 1ba#816A06A062A7BC8AF
(2.139900) can0 1c3#8062A07BC00000000
(2.140150) can0 1c4#86D62C21B060003FD
(2.140400) can0 c1#83000000030000000
(2.140550) can0 1c5#62F572BF0323D
(2.140800) can0 c5#83000000030000000
(2.141000) can0 1df#400000000
(2.141250) can0 d1#78000BFFE00FE00
(2.141450) can0 1f4#6000000000000
(2.141550) can0 185#20009
(2.141700) can0 287#3000000
(2.141950) can0 1c7#7096EB69000003F
(2.142200) can0 1e5#85CFFD3100300027D
(2.142400) can0 348#5000000001B
(2.143200) can0 c7#400000000
(2.143500) can0 f9#80000400000000006
(2.145150) can0 1c6#82A6F2FD1004340BB
(2.145300) can0 1ce#4080007FF
(2.145550) can0 321#8000034FF7FBFDFE0
(2.145750) can0 34a#50000000000
(2.145900) can0 324#30000FF
(2.146100) can0 350#400000C00
(2.146400) can0 785#80000000000000000
(2.148050) can0 f1#6340000400000
(2.149650) can0 189#84FFF0FFF3000FFF0
(2.149900) can0 19d#840003FFF000000FF
(2.150100) can0 aa#82A8B2F570250A800
(2.150350) can0 c1#80000000000000000
(2.150550) can0 be#6000000000000
(2.150850) can0 c5#80000000000000000
(2.151100) can0 c9#80000002000000800
(2.151300) can0 d1#7C000FFFD00FD00
(2.151450) can0 d3#22A88
(2.151650) can0 12a#830E2705F00001090
(2.151900) can0 18e#800000062A62B062B
(2.152050) can0 1a6#104
(2.152300) can0 1af#800000011000000FF
(2.152550) can0 1e5#85CFFD23000000299
(2.152750) can0 1ed#801A9000000003329
(2.153000) can0 1e9#80008000EA0010000
(2.153100) can0 130#102
(2.153350) can0 1f5#80F0F002100000300
(2.153600) can0 232#80000010000006000
(2.153850) can0 7e8#80441100000AAAAAA
(2.154100) can0 34c#8007B000100090008
(2.154750) can0 1cc#50000000000
(2.155050) can0 362#400000000
(2.155650) can0 135#800080C326614142F
(2.155800) can0 c7#400000000
(2.156100) can0 f9#80000400000000006
(2.158100) can0 f1#6000000400000
(2.160200) can0 c1#81000000010000000
(2.160450) can0 c5#81000000010000000
(2.160700) can0 137#80F008A510DD8080E
(2.160900) can0 d1#700000000000000
(2.161050) can0 185#20009
(2.161300) can0 1c7#7096EF68F00003F
(2.161550) can0 1e5#85CFFD250000002B9
(2.162550) can0 aa#82A8B2F570450A700
(2.162800) can0 be#60400000001FF
(2.163000) can0 c9#80000002700000800
(2.163250) can0 139#80200000000000000
(2.163400) can0 d3#22A88
(2.163650) can0 1a1#700100000625200
(2.163850) can0 18e#800000062A62B062B
(2.163950) can0 1a3#100
(2.164200) can0 1ed#801A9000000003329
(2.164450) can0 1aa#70062A63F62A000
(2.164650) can0 1ba#816A06A062A7BC8AF
(2.164900) can0 1c3#8062A07BC00000000
(2.165100) can0 1ce#4100007FE
(2.165350) can0 1c4#80062C21B00000000
(2.165700) can0 140#3000201
(2.165900) can0 1c5#62F572BF0323D
(2.166300) can0 1df#400000000
(2.166550) can0 1f4#6000000000000
(2.166700) can0 287#3430000
(2.166950) can0 2c3#8062A062A0000CD10
(2.167200) can0 3c1#80765140000000000
(2.167400) can0 3d1#8014C800000000000
(2.167650) can0 3d3#700C900003FFF4C
(2.167900) can0 3e9#80000000000000000
(2.168100) can0 3f9#8000000005A00B72A
(2.168300) can0 c7#400000000
(2.168500) can0 f1#61C0000400000
(2.168750) can0 f9#80000400000000006
(2.168900) can0 3fb#20000
(2.169150) can0 3fc#80800508A89208A89
(2.169350) can0 4c1#810C9524C89000000
(2.169550) can0 4c7#311B400
(2.169750) can0 4d1#7000000031EAE00
(2.170400) can0 c1#82000000020000000
(2.170600) can0 160#50000000000
(2.170850) can0 c5#82000000020000000
(2.171100) can0 321#8000054FF7FBFDFE0
(2.171350) can0 d1#740007FFF00FF00
(2.171550) can0 1c6#82A6F2FD1008340BA
(2.171800) can0 1e5#85CFFD07FFF0003E5
(2.172050) can0 1e9#80004000EA0010000
(2.172300) can0 1fc#800F7003400004172
(2.172550) can0 7e8#803411152AAAAAAAA
(2.172800) can0 232#80000010000006000
(2.173150) can0 1e1#7000004000008E0
(2.174750) can0 189#88FFF0FFF2FFFFFF0
(2.175000) can0 19d#880003FFE000000FF
(2.175250) can0 aa#82A8B2F570650A600
(2.175350) can0 1a6#104
(2.175550) can0 be#60800000001FE
(2.175800) can0 1af#800000011000000FF
(2.176050) can0 c9#80000002A00000800
(2.176250) can0 1cc#50000000000
(2.176400) can0 d3#22A88
(2.176650) can0 1f1#8800A00000800007A
(2.176900) can0 18e#800000062A62B062B
(2.177100) can0 1f5#80F0F002100000300
(2.177350) can0 1ed#801A9000000003329
(2.177500) can0 210#4040001FE
(2.178100) can0 f1#6280000400000
(2.180300) can0 c1#83000000030000000
(2.180550) can0 c5#83000000030000000
(2.180750) can0 c7#400000000
(2.180950) can0 d0#88000800080008000
(2.181250) can0 f9#80000400000000006
(2.181450) can0 d1#78000BFFE00FE00
(2.181650) can0 1e1#700000400010DDF
(2.181800) can0 185#20009
(2.182050) can0 1c7#7096E369200003F
(2.182300) can0 1e5#85CFFCE1FFE000382
(2.182500) can0 214#6020021FF241F
(2.183050) can0 1f3#3808000
(2.184950) can0 1ce#4180007FD
(2.185150) can0 234#50000000000
(2.185350) can0 2f9#793000700000007
(2.185850) can0 32a#80000000000000000
(2.187600) can0 aa#82A8B2F570050A900
(2.187850) can0 be#60C00000001FD
(2.188100) can0 c9#80000002D00000800
(2.188300) can0 f1#6340204400000
(2.188400) can0 d3#22A88
(2.188650) can0 1a1#700100000625200
(2.188850) can0 18e#800000062A62B062B
(2.189000) can0 1a3#100
(2.189250) can0 1ed#801A9000000003329
(2.189450) can0 1aa#70062A63F62A000
(2.189700) can0 1ba#816A06A062A7BC8AF
(2.189950) can0 1c3#8062A07BC00000000
(2.190200) can0 1c4#82762C21B020007FF
(2.190450) can0 c1#80000000000000000
(2.190600) can0 1c5#62F572BF0323D
(2.190850) can0 c5#80000000000000000
(2.191050) can0 1df#400000000
(2.191300) can0 d1#7C000FFFD00FD00
(2.191450) can0 1f3#3C0C000
(2.191650) can0 1e5#85CFFCE3FFE0003A2
(2.191850) can0 1f4#6000000000000
(2.192100) can0 1e9#80004000EA0020000
(2.192250) can0 287#3820000
(2.192500) can0 232#80000010000006000
(2.192750) can0 4f1#842340234008E01B4
(2.192950) can0 348#5000000001B
(2.193050) can0 4f3#169
(2.193300) can0 3c9#80766000000000000
(2.193450) can0 c7#400000000
(2.193750) can0 f9#80000400000000006
(2.193950) can0 589#8C03880F67C6350C7
(2.194200) can0 772#700000000000000
(2.194750) can0 1cc#50000000000
(2.195000) can0 1cf#3000005
(2.195200) can0 1c6#82A6F2FD100C340B9
(2.195400) can0 34a#50000000000
(2.195650) can0 321#8000074FF7FBFDFE0
(2.195850) can0 3f1#800FF5A0837FF0A89
(2.196050) can0 350#400000C00
(2.196250) can0 500#4406E01F4
(2.198100) can0 f1#6000000400000
(2.199750) can0 189#8CFFF0FFF2FFEFFF0
(2.200000) can0 19d#8C0003FFD000000FF
(2.200200) can0 aa#82A8B2F570250A800
(2.200450) can0 c1#81000000010000000
(2.200700) can0 be#6000000000000
(2.200950) can0 c5#81000000010000000
(2.201150) can0 c9#80000002000000800
(2.201400) can0 d1#700000000000000
(2.201550) can0 d3#22A88
(2.201650) can0 185#2000A
(2.201900) can0 18e#800000062A62B062B
(2.202050) can0 1a6#104
(2.202250) can0 1af#800000011000000FF
(2.202500) can0 1c7#7096E769100003F
(2.202750) can0 1ed#801A9000000003329
(2.202950) can0 1e5#85CFFCE5FFE0003C2
(2.203200) can0 1f5#80F0F002100000300
(2.203450) can0 34c#8087A0002000A0004
(2.203650) can0 451#6000000000000
(2.205000) can0 1ce#400000000
(2.205200) can0 362#400000000
(2.205450) can0 773#700280000000000
(2.205850) can0 c7#400000000
(2.206100) can0 f9#80000400000000006
(2.206250) can0 4c5#50000000000
(2.208050) can0 f1#61C0000400000
(2.210150) can0 c1#82000000020000000
(2.210450) can0 c5#82000000020000000
(2.210650) can0 1e1#70000040002020E
(2.210900) can0 d1#740007FFF00FF00
(2.211150) can0 1e5#85CFFCE7FFE0003E2
(2.211400) can0 1e9#80004000EA0030000
(2.211650) can0 232#80000010000006000
(2.212550) can0 aa#82A8B2F570450A700
(2.212750) can0 be#60400000001FF
(2.213000) can0 c9#80000002700000800
(2.213250) can0 1a1#700100000625200
(2.213400) can0 d3#22A88
(2.213500) can0 1a3#100
(2.213750) can0 18e#800000062A62B062B
(2.213950) can0 1aa#70062A63F62A000
(2.214200) can0 1ed#801A9000000003329
(2.214400) can0 1ba#816A06A062A7BC8AF
(2.214550) can0 1f3#3000000
(2.214800) can0 1c3#8062A07BC00000000
(2.215000) can0 1cc#50000000000
(2.215250) can0 1c4#84A62C21B040005FE
(2.215500) can0 780#700000000000000
(2.215650) can0 1c5#62F572BF0323D
(2.215900) can0 451#6000000000000
(2.216050) can0 1df#400000000
(2.216500) can0 1f4#6000000000000
(2.216650) can0 287#3C10000
(2.216900) can0 2c3#8062A062A0000CD10
(2.218100) can0 f1#6280000400000
(2.218300) can0 c7#400000000
(2.218550) can0 f9#80000400000000006
(2.220400) can0 c1#83000000030000000
(2.220650) can0 321#8000094FF7FBFDFE0
(2.220900) can0 c5#83000000030000000
(2.221150) can0 4e1#84652323232373736
(2.221350) can0 d1#78000BFFE00FE00
(2.221500) can0 185#2000A
(2.221750) can0 1c6#82A6F2FD1000340BC
(2.221950) can0 1c7#7096EB69000003F
(2.222250) can0 1e5#85CFFCE1FFE000382
(2.222450) can0 1fc#80111003400008095
(2.222650) can0 233#50000000000
(2.223100) can0 4e9#6E16004435400
(2.224800) can0 189#80FFF0FFF3001FFF0
(2.225000) can0 17d#6222442FF0000
(2.225200) can0 aa#82A8B2F570650A600
(2.225450) can0 19d#800000000000000FF
(2.225700) can0 be#60800000001FE
(2.225800) can0 1a6#104
(2.226050) can0 c9#80000002A00000800
(2.226300) can0 1af#800000011000000FF
(2.226400) can0 d3#22A88
(2.226600) can0 1ce#4080007FF
(2.226800) can0 18e#800000062A62B062B
(2.227050) can0 1f5#80F0F002100000300
(2.227300) can0 1ed#801A9000000003329
(2.227500) can0 210#4060001FD
(2.227700) can0 4c9#8404EC10010000000
(2.227950) can0 514#8474E534B424B4335
(2.228200) can0 77f#700000000000000
(2.230250) can0 c1#80000000000000000
(2.230500) can0 c5#80000000000000000
(2.230700) can0 c7#400000000
(2.230900) can0 d1#7C000FFFD00FD00
(2.231100) can0 f1#6340000400000
(2.231350) can0 f9#80000400000000006
(2.231600) can0 1e5#85CFFCE3FFE0003A2
(2.231850) can0 1e9#80004000EA0020000
(2.232050) can0 214#6040041FE482A
(2.232350) can0 232#80000010000006000
(2.233100) can0 451#6000000000000
(2.234750) can0 1cc#50000000000
(2.235050) can0 182#80000000000000000
(2.235300) can0 2f9#79B000A0000000A
(2.235600) can0 52a#6242438393A39
(2.237550) can0 aa#82A8B2F570050A900
(2.237750) can0 be#60C00000001FD
(2.238000) can0 c9#80000002D00000800
(2.238200) can0 f1#6000204400000
(2.238350) can0 d3#22A88
(2.238600) can0 1a1#700100000625200
(2.238800) can0 18e#800000062A62B062B
(2.238900) can0 1a3#100
(2.239150) can0 1ed#801A9000000003329
(2.239400) can0 1aa#70062A63F62A000
(2.239600) can0 1ba#816A06A062A7BC8AF
(2.239850) can0 1c3#8062A07BC00000000
(2.240100) can0 1c4#86D62C21B060003FD
(2.240350) can0 c1#81000000010000000
(2.240550) can0 1c5#62F572BF0323D
(2.240800) can0 c5#81000000010000000
(2.240900) can0 148#100
(2.241100) can0 d1#700000000000000
(2.241300) can0 1df#400000000
(2.241450) can0 185#2000A
(2.241650) can0 1e1#7000004000307FD
(2.241900) can0 1c7#7096EF68F00003F
(2.242100) can0 1f4#6000000000000
(2.242350) can0 1e5#85CFFCE5FFE0003C2
(2.242500) can0 287#3000000
(2.242700) can0 348#5000000001B
(2.242900) can0 778#700310000000000
(2.243100) can0 1f3#3404000
(2.243250) can0 c7#400000000
(2.243550) can0 f9#80000400000000006
(2.245150) can0 1c6#82A6F2FD1004340BB
(2.245350) can0 1ce#4100007FE
(2.245550) can0 321#80000B4FF7FBFDFE0
(2.245750) can0 34a#50000000000
(2.245950) can0 350#400000C00
(2.246100) can0 52b#431313230
(2.248100) can0 f1#61C0000400000
(2.249650) can0 189#84FFF0FFF3000FFF0
(2.249900) can0 19d#840003FFF000000FF
(2.250100) can0 aa#82A8B2F570250A800
(2.250350) can0 c1#82000000020000000
(2.250600) can0 be#6000000000000
(2.250850) can0 c5#82000000020000000
(2.251100) can0 c9#80000002000000800
(2.251300) can0 d1#740007FFF00FF00
(2.251450) can0 d3#22A88
(2.251700) can0 12a#830E2705F000010A0
(2.251900) can0 18e#800000062A62B062B
(2.252050) can0 1a6#104
(2.252300) can0 1af#800000011000000FF
(2.252500) can0 1e5#85CFFD070000002D7
(2.252750) can0 1ed#801A9000000003329
(2.253000) can0 1e9#80000000EA0020000
(2.253250) can0 135#800080C326614142F
(2.253500) can0 1f5#80F0F002100000300
(2.253700) can0 232#80000010000006000
(2.253950) can0 34c#810780002000B0000
(2.254750) can0 1cc#50000000000
(2.255100) can0 362#400000000
(2.255700) can0 137#80F008A510DD8080E
(2.255850) can0 c7#400000000
(2.256050) can0 f9#80000400000000006
(2.258100) can0 f1#6280000400000
(2.260150) can0 c1#83000000030000000
(2.260450) can0 c5#83000000030000000
(2.260700) can0 139#80200000000000000
(2.260900) can0 d1#78000BFFE00FE00
(2.261050) can0 185#2000C
(2.261250) can0 1c7#7096E369200003F
(2.261500) can0 1e5#85CFFD01000000277
(2.262600) can0 aa#82A8B2F570450A700
(2.262800) can0 be#60400000001FF
(2.263050) can0 c9#80000002700000800
(2.263250) can0 160#50000000000
(2.263350) can0 d3#22A88
(2.263600) can0 1a1#700100000625200
(2.263800) can0 18e#800000062A62B062B
(2.263950) can0 1a3#100
(2.264200) can0 1ed#801A9000000003329
(2.264400) can0 1aa#70062A63F62A000
(2.264650) can0 1ba#816A06A062A7BC8AF
(2.264900) can0 1c3#8062A07BC00000000
(2.265050) can0 1ce#4180007FD
(2.265300) can0 1c4#80062C21B00000000
(2.265500) can0 1c5#62F572BF0323D
(2.265950) can0 1df#400000000
(2.266150) can0 1f1#8800A00000800007A
(2.266400) can0 1f4#6000000000000
(2.266550) can0 287#3430000
(2.266800) can0 2c3#8062A062A0000CC10
(2.267050) can0 3c1#80765140000000000
(2.267250) can0 3d1#8014C800000000000
(2.267500) can0 3d3#700C900005FFE4C
(2.267750) can0 3e9#80000000000000000
(2.268150) can0 f1#6340000400000
(2.268350) can0 c7#400000000
(2.268600) can0 f9#80000400000000006
(2.270400) can0 c1#80000000000000000
(2.270650) can0 321#80000D4FF7FBFDFE0
(2.270900) can0 c5#80000000000000000
(2.271100) can0 1e1#7000004000008E0
(2.271350) can0 d1#7C000FFFD00FD00
(2.271600) can0 1c6#82A6F2FD1008340BA
(2.271800) can0 1e5#85CFFD2300100029A
(2.272100) can0 1e9#80004000EA0020000
(2.272350) can0 1fc#8013800340000C0C4
(2.272600) can0 7e8#803410A00AAAAAAAA
(2.272850) can0 232#80000010000006000
(2.273100) can0 1f3#3808000
(2.274800) can0 189#88FFF0FFF2FFFFFF0
(2.275000) can0 19d#880003FFE000000FF
(2.275250) can0 aa#82A8B2F570650A600
(2.275350) can0 1a6#104
(2.275550) can0 be#60800000001FE
(2.275800) can0 1af#800000011000000FF
(2.276050) can0 c9#80000002A00000800
(2.276250) can0 1cc#50000000000
(2.276400) can0 d3#22A88
(2.276650) can0 1f5#80F0F002100000300
(2.276850) can0 18e#800000062A62B062B
(2.277050) can0 210#400000000
(2.277300) can0 1ed#801A9000000003329
(2.277550) can0 32a#80000000000000000
(2.278150) can0 f1#6000000400000
(2.280250) can0 c1#81000000010000000
(2.280500) can0 c5#81000000010000000
(2.280700) can0 c7#400000000
(2.280950) can0 d0#88000800080008000
(2.281200) can0 f9#80000400000000006
(2.281450) can0 d1#700000000000000
(2.281700) can0 3c9#80766000000000000
(2.281800) can0 185#2000C
(2.282000) can0 1c7#7096E769100003F
(2.282250) can0 1e5#85CFFD250010002BA
(2.282450) can0 214#6060061FD6C35
(2.283100) can0 451#6000000000000
(2.284950) can0 1ce#400000000
(2.285200) can0 234#50000000000
(2.285400) can0 2f9#7A3000D0000000D
(2.285850) can0 530#400000000
(2.287650) can0 aa#82A8B2F570050A900
(2.287850) can0 be#60C00000001FD
(2.288100) can0 c9#80000002D00000800
(2.288300) can0 f1#61C0204400000
(2.288400) can0 d3#22A88
(2.288650) can0 1a1#700100000625200
(2.288900) can0 18e#800000062A62B062B
(2.289000) can0 1a3#100
(2.289250) can0 1ed#801A9000000003329
(2.289450) can0 1aa#70062A63F62A000
(2.289700) can0 1ba#816A06A062A7BC8AF
(2.289950) can0 1c3#8062A07BC00000000
(2.290150) can0 1c4#82762C21B020007FF
(2.290450) can0 c1#82000000020000000
(2.290600) can0 1c5#62F572BF0323D
(2.290850) can0 c5#82000000020000000
(2.291050) can0 1df#400000000
(2.291250) can0 d1#740007FFF00FF00
(2.291450) can0 1f4#6000000000000
(2.291700) can0 1e5#85CFFD270010002DA
(2.291850) can0 287#3820000
(2.292100) can0 1e9#80004000EA0020000
(2.292350) can0 451#6000000000000
(2.292550) can0 232#80000010000006000
(2.292800) can0 7e8#803410B66AAAAAAAA
(2.293000) can0 348#5000000001B
(2.293250) can0 c7#400000000
